!CSV A.01.01
!Agilent Technologies,E8361C,US49010233,A.09.22.11
!Agilent E8361C: A.09.22.11
!Date: Wednesday, September 28, 2022 13:11:45
!Source: Standard

BEGIN CH1_DATA
Freq(Hz),S11(DB),S11(DEG)
500000000,-0.2527861,165.81937
504500000,-0.27903289,164.4527
509000000,-0.25794885,162.91821
513500000,-0.28242746,161.19337
518000000,-0.27163145,159.74767
522500000,-0.27483153,158.10075
527000000,-0.27343854,156.47229
531500000,-0.27991462,155.42612
536000000,-0.2730583,153.57013
540500000,-0.30412397,152.09558
545000000,-0.32072914,150.50127
549500000,-0.29123434,148.91306
554000000,-0.28871045,147.41559
558500000,-0.32631138,145.87367
563000000,-0.30458385,144.41759
567500000,-0.32234663,142.72763
572000000,-0.32400829,141.0737
576500000,-0.31543553,139.48018
581000000,-0.33055303,138.16235
585500000,-0.31396708,136.30299
590000000,-0.32763472,135.02583
594500000,-0.33461106,133.31682
599000000,-0.3134639,131.81776
603500000,-0.33857808,130.40152
608000000,-0.35290709,128.89954
612500000,-0.31195399,127.51245
617000000,-0.36306629,126.03653
621500000,-0.31551439,124.64295
626000000,-0.34035408,123.21932
630500000,-0.34476811,121.92702
635000000,-0.33075711,120.44985
639500000,-0.33401456,118.77184
644000000,-0.34828645,117.3678
648500000,-0.34472013,115.9958
653000000,-0.35890177,114.45992
657500000,-0.36401489,113.03857
662000000,-0.35732687,111.46072
666500000,-0.37935343,109.89623
671000000,-0.36008278,108.35498
675500000,-0.34305862,106.71174
680000000,-0.40155536,105.50542
684500000,-0.3730309,103.89933
689000000,-0.3737168,102.42547
693500000,-0.39860368,100.7763
698000000,-0.38377103,99.288353
702500000,-0.38617823,98.102898
707000000,-0.37598449,96.444855
711500000,-0.3590596,95.109604
716000000,-0.35900679,93.77951
720500000,-0.36808366,92.35289
725000000,-0.39539722,91.077858
729500000,-0.38167077,89.675835
734000000,-0.40024847,88.343491
738500000,-0.38587761,86.666206
743000000,-0.38239247,85.494461
747500000,-0.39063898,84.011177
752000000,-0.39220834,82.603592
756500000,-0.39482754,81.213928
761000000,-0.39734507,79.476189
765500000,-0.42387754,78.121353
770000000,-0.4203901,76.61293
774500000,-0.45214969,75.145363
779000000,-0.37839127,73.44146
783500000,-0.40311569,71.719818
788000000,-0.46505728,70.570732
792500000,-0.39618415,69.148476
797000000,-0.42454904,67.329353
801500000,-0.44110286,66.205109
806000000,-0.37830943,64.953491
810500000,-0.40239081,62.947708
815000000,-0.47173235,61.961094
819500000,-0.39707929,60.572975
824000000,-0.39304894,58.754757
828500000,-0.47195268,57.995941
833000000,-0.39474365,56.674904
837500000,-0.40180397,54.617863
842000000,-0.48685521,53.756538
846500000,-0.40282524,52.32489
851000000,-0.44724694,50.362507
855500000,-0.51302016,49.280788
860000000,-0.41465536,47.687096
864500000,-0.44387591,45.878246
869000000,-0.48820665,44.713402
873500000,-0.45235422,43.350452
878000000,-0.44624645,41.258091
882500000,-0.50131828,39.792103
887000000,-0.40694931,38.427773
891500000,-0.46456957,36.43718
896000000,-0.52256316,35.426998
900500000,-0.40683535,33.728428
905000000,-0.45835176,31.887104
909500000,-0.51795965,30.799484
914000000,-0.46416113,29.515137
918500000,-0.45676744,27.593054
923000000,-0.52284867,26.206902
927500000,-0.47436422,25.180548
932000000,-0.47613731,22.912361
936500000,-0.52449036,21.732094
941000000,-0.48580575,20.499918
945500000,-0.4687252,18.34948
950000000,-0.57442552,17.045994
954500000,-0.49913365,15.334796
959000000,-0.51869738,13.266434
963500000,-0.60133094,11.615413
968000000,-0.5471465,10.026909
972500000,-0.54207343,7.7332854
977000000,-0.62375826,5.8974886
981500000,-0.5687238,4.2430363
986000000,-0.56724954,2.0230782
990500000,-0.65965116,0.07027673
995000000,-0.60121411,-1.8457451
999500000,-0.6379602,-4.1599774
1004000000,-0.69527107,-6.3196235
1008500000,-0.67125845,-8.2817583
1013000000,-0.73855054,-10.807134
1017500000,-0.83928692,-12.826726
1022000000,-0.835868,-14.942183
1026500000,-0.91877359,-18.099466
1031000000,-1.0573306,-20.674002
1035500000,-1.1037643,-23.304031
1040000000,-1.2660341,-26.833027
1044500000,-1.4739077,-30.407869
1049000000,-1.7196268,-34.125515
1053500000,-2.0313778,-38.538296
1058000000,-2.5308678,-43.397083
1062500000,-3.2380149,-48.313114
1067000000,-4.1565061,-53.160931
1071500000,-5.3755889,-57.688877
1076000000,-7.2240796,-60.915482
1080500000,-9.6425028,-59.004559
1085000000,-12.246366,-47.79306
1089500000,-13.562335,-23.351355
1094000000,-11.935526,-1.6464586
1098500000,-9.5518713,6.7652197
1103000000,-7.6528649,7.5585146
1107500000,-6.4229016,5.3468051
1112000000,-5.5239043,3.1358094
1116500000,-4.7680216,0.4967888
1121000000,-4.2781291,-2.6771512
1125500000,-3.8721139,-4.5924172
1130000000,-3.3899539,-6.6189184
1134500000,-2.8937285,-9.1799459
1139000000,-2.5708435,-14.227021
1143500000,-2.598063,-16.56259
1148000000,-2.4993997,-18.894255
1152500000,-2.433445,-21.092119
1157000000,-2.2736681,-23.352533
1161500000,-2.1977153,-26.158598
1166000000,-2.183991,-28.323835
1170500000,-2.0867054,-30.5222
1175000000,-2.0897644,-33.286366
1179500000,-2.0694525,-35.519543
1184000000,-2.0658453,-37.583755
1188500000,-2.0330565,-39.977852
1193000000,-2.0766687,-42.407417
1197500000,-2.0907097,-44.226009
1202000000,-2.1580305,-46.586239
1206500000,-2.2182248,-48.244846
1211000000,-2.280232,-49.865444
1215500000,-2.3017769,-51.108238
1220000000,-2.3114722,-52.817753
1224500000,-2.3211784,-54.271729
1229000000,-2.3221536,-55.61618
1233500000,-2.3246415,-57.381302
1238000000,-2.3289723,-58.523159
1242500000,-2.3500917,-60.432777
1247000000,-2.3913369,-62.229828
1251500000,-2.4489648,-64.276764
1256000000,-2.5340197,-65.780579
1260500000,-2.6277606,-67.458649
1265000000,-2.6982875,-68.814392
1269500000,-2.7608864,-70.24823
1274000000,-2.8095763,-71.92131
1278500000,-2.8632224,-73.668922
1283000000,-2.8756654,-74.77034
1287500000,-2.9240587,-76.584763
1292000000,-2.9391272,-78.269936
1296500000,-2.9478624,-79.850548
1301000000,-3.0196612,-81.369667
1305500000,-3.0664151,-82.886055
1310000000,-3.0719383,-84.06813
1314500000,-3.0565574,-85.804825
1319000000,-3.0874276,-87.330132
1323500000,-3.0514431,-88.581284
1328000000,-3.058023,-89.92421
1332500000,-3.058706,-91.544243
1337000000,-3.143178,-93.206078
1341500000,-3.1141038,-94.800339
1346000000,-3.152734,-96.837532
1350500000,-3.2481933,-98.044273
1355000000,-3.2500222,-99.690948
1359500000,-3.3286545,-101.70701
1364000000,-3.3417256,-103.45343
1368500000,-3.3079975,-105.35508
1373000000,-3.3782046,-107.93183
1377500000,-3.435874,-109.89784
1382000000,-3.4895215,-112.21674
1386500000,-3.6100063,-114.89257
1391000000,-3.7217381,-116.81667
1395500000,-3.7555606,-119.06139
1400000000,-3.8984342,-122.01305
1404500000,-4.0605311,-123.85818
1409000000,-4.1611423,-126.27669
1413500000,-4.3768806,-129.19868
1418000000,-4.6856871,-131.13919
1422500000,-4.9405537,-133.38477
1427000000,-5.5317144,-135.51282
1431500000,-6.3274641,-134.70128
1436000000,-6.7196407,-128.952
1440500000,-6.0337176,-125.00188
1445000000,-5.3274245,-126.97454
1449500000,-5.0458903,-130.82555
1454000000,-5.1214685,-134.61746
1458500000,-5.242578,-136.74596
1463000000,-5.2843118,-139.34039
1467500000,-5.4566813,-142.06041
1472000000,-5.590795,-143.88763
1476500000,-5.6247416,-146.1985
1481000000,-5.7782598,-148.97247
1485500000,-5.9624643,-150.92085
1490000000,-5.9961457,-153.17268
1494500000,-6.1876011,-156.14946
1499000000,-6.3075256,-157.90373
1503500000,-6.4668241,-160.14009
1508000000,-6.6091747,-162.26019
1512500000,-6.7378345,-164.21315
1517000000,-6.9334617,-166.7646
1521500000,-7.1093473,-168.09389
1526000000,-7.2247519,-170.37881
1530500000,-7.4450393,-173.28323
1535000000,-7.7180538,-175.26309
1539500000,-7.9367666,-177.64081
1544000000,-8.3268957,179.24852
1548500000,-8.7736626,177.04227
1553000000,-9.085948,174.71504
1557500000,-9.5946646,171.6442
1562000000,-10.188552,169.2971
1566500000,-10.705215,166.77737
1571000000,-11.377789,164.32492
1575500000,-12.150161,162.45789
1580000000,-12.839608,160.88173
1584500000,-13.60288,159.59584
1589000000,-14.471315,159.0058
1593500000,-15.250756,159.55626
1598000000,-16.18224,161.03874
1602500000,-16.934137,163.85432
1607000000,-17.554518,166.78618
1611500000,-18.210073,170.58827
1616000000,-18.924805,175.93823
1620500000,-19.414391,-176.67058
1625000000,-19.592028,-167.20375
1629500000,-19.212152,-157.34628
1634000000,-18.302214,-151.23045
1638500000,-17.52277,-146.65895
1643000000,-16.718279,-143.90669
1647500000,-16.029526,-142.35091
1652000000,-15.447723,-140.45601
1656500000,-14.658113,-139.8141
1661000000,-14.058067,-140.74037
1665500000,-13.624372,-141.51993
1670000000,-13.118528,-142.82771
1674500000,-12.769465,-145.14502
1679000000,-12.494108,-146.91444
1683500000,-12.131575,-148.71219
1688000000,-11.806363,-151.6721
1692500000,-11.621568,-154.07767
1697000000,-11.334268,-156.40529
1701500000,-11.065753,-159.78891
1706000000,-10.939775,-162.44536
1710500000,-10.692833,-164.42274
1715000000,-10.479208,-167.56361
1719500000,-10.38927,-170.16925
1724000000,-10.204429,-171.92191
1728500000,-9.9829826,-174.68274
1733000000,-9.9210052,-176.80617
1737500000,-9.7334461,-178.48738
1742000000,-9.5647888,178.62883
1746500000,-9.5596247,176.21042
1751000000,-9.4448433,174.69705
1755500000,-9.3369503,171.90942
1760000000,-9.344882,169.56113
1764500000,-9.303606,167.20322
1769000000,-9.2754869,164.35362
1773500000,-9.3244896,161.54971
1778000000,-9.3184977,159.13881
1782500000,-9.2786198,155.59947
1787000000,-9.3587904,152.19878
1791500000,-9.3679562,149.36185
1796000000,-9.3467617,145.86583
1800500000,-9.3971357,142.47456
1805000000,-9.3954601,139.43642
1809500000,-9.3726168,135.92064
1814000000,-9.4448891,132.68965
1818500000,-9.4537106,129.64211
1823000000,-9.4080648,126.64529
1827500000,-9.4753284,123.3786
1832000000,-9.5433969,120.65366
1836500000,-9.5640373,117.90297
1841000000,-9.6473408,115.03529
1845500000,-9.7025633,111.93204
1850000000,-9.7773981,109.12093
1854500000,-9.8271074,105.88286
1859000000,-9.9200449,102.63136
1863500000,-10.013198,98.783562
1868000000,-10.087343,94.70237
1872500000,-10.140633,90.18924
1877000000,-10.291555,85.687775
1881500000,-10.340857,81.123878
1886000000,-10.406138,75.651749
1890500000,-10.512837,70.582138
1895000000,-10.538219,65.552528
1899500000,-10.532062,59.770248
1904000000,-10.66701,54.642445
1908500000,-10.689077,49.710037
1913000000,-10.713627,44.056999
1917500000,-10.794162,38.950874
1922000000,-10.880189,33.886749
1926500000,-10.892856,28.45401
1931000000,-11.017938,22.587816
1935500000,-11.160067,17.488367
1940000000,-11.155948,11.372553
1944500000,-11.304672,4.2245951
1949000000,-11.429668,-1.9282616
1953500000,-11.367183,-8.7880039
1958000000,-11.435226,-16.700626
1962500000,-11.498794,-23.746988
1967000000,-11.466954,-31.068722
1971500000,-11.427911,-38.837776
1976000000,-11.404748,-45.665348
1980500000,-11.266394,-51.98687
1985000000,-11.117728,-58.867912
1989500000,-10.997116,-65.080849
1994000000,-10.927812,-71.16246
1998500000,-10.855439,-76.690681
2003000000,-10.823554,-82.069794
2007500000,-10.805989,-87.497047
2012000000,-10.744334,-92.092804
2016500000,-10.734526,-97.183655
2021000000,-10.775373,-102.37505
2025500000,-10.779389,-106.76468
2030000000,-10.740582,-111.50676
2034500000,-10.666859,-116.43767
2039000000,-10.632362,-120.94977
2043500000,-10.478915,-125.25174
2048000000,-10.333209,-130.13455
2052500000,-10.232147,-134.26564
2057000000,-10.01142,-138.29741
2061500000,-9.796298,-142.59383
2066000000,-9.7003088,-146.31998
2070500000,-9.4212599,-149.48645
2075000000,-9.2115841,-153.7972
2079500000,-9.129034,-157.20003
2084000000,-8.955884,-160.11218
2088500000,-8.8397369,-163.78235
2093000000,-8.8455629,-166.97424
2097500000,-8.7409315,-169.60872
2102000000,-8.6091976,-173.14476
2106500000,-8.6122894,-176.40305
2111000000,-8.5179806,-179.14307
2115500000,-8.4273529,177.0907
2120000000,-8.4098787,173.86957
2124500000,-8.2943811,170.66185
2129000000,-8.1830378,166.681
2133500000,-8.1067801,162.86011
2138000000,-7.9575543,159.60188
2142500000,-7.7920256,155.60057
2147000000,-7.7072511,151.67873
2151500000,-7.5703087,148.54498
2156000000,-7.4011841,144.96417
2160500000,-7.3494329,141.33263
2165000000,-7.1990499,138.39009
2169500000,-7.0403128,134.75598
2174000000,-7.0295067,131.31207
2178500000,-6.9552183,128.06902
2183000000,-6.8768988,124.47617
2187500000,-6.8773241,120.85211
2192000000,-6.9263425,117.38862
2196500000,-6.9072251,113.64248
2201000000,-6.9572077,109.59678
2205500000,-7.0119829,105.87305
2210000000,-7.0701127,101.92978
2214500000,-7.1262813,97.780945
2219000000,-7.1588316,93.31517
2223500000,-7.24754,88.913597
2228000000,-7.2213755,84.729553
2232500000,-7.2568212,80.076958
2237000000,-7.3635321,75.845642
2241500000,-7.3668523,71.611954
2246000000,-7.4204278,66.677391
2250500000,-7.5666761,62.55405
2255000000,-7.6617169,58.631241
2259500000,-7.7804079,54.216171
2264000000,-8.0495253,49.711857
2268500000,-8.208951,45.872822
2273000000,-8.404994,41.499023
2277500000,-8.7518139,36.900238
2282000000,-9.0661144,32.91618
2286500000,-9.2862101,27.678158
2291000000,-9.7594032,22.230106
2295500000,-10.177007,17.560774
2300000000,-10.469692,11.878964
2304500000,-10.911026,5.5179834
2309000000,-11.418474,0.079694241
2313500000,-11.779104,-5.6335902
2318000000,-12.159313,-11.865031
2322500000,-12.558552,-17.574942
2327000000,-12.804755,-23.417774
2331500000,-13.141255,-30.658203
2336000000,-13.550264,-37.675102
2340500000,-13.950683,-44.680943
2345000000,-14.523323,-52.915321
2349500000,-15.248558,-60.653419
2354000000,-16.046846,-68.682549
2358500000,-16.88649,-76.92276
2363000000,-17.676014,-86.068916
2367500000,-18.527473,-96.908836
2372000000,-19.07309,-107.90519
2376500000,-19.395645,-120.84987
2381000000,-19.376139,-135.3551
2385500000,-19.348686,-148.95679
2390000000,-18.860146,-161.13338
2394500000,-18.370338,-173.07211
2399000000,-17.995522,176.89012
2403500000,-17.630966,168.23817
2408000000,-17.187035,160.68457
2412500000,-16.894995,153.20343
2417000000,-16.578304,147.586
2421500000,-16.227268,140.99081
2426000000,-16.0077,133.89415
2430500000,-15.786438,127.12436
2435000000,-15.523659,120.24174
2439500000,-15.26649,112.17876
2444000000,-15.07838,105.50593
2448500000,-14.868152,98.028328
2453000000,-14.633018,91.354805
2457500000,-14.392673,85.107162
2462000000,-14.230415,78.812874
2466500000,-13.976319,73.553261
2471000000,-13.761302,68.701889
2475500000,-13.609962,63.122471
2480000000,-13.521531,58.750618
2484500000,-13.384454,54.044762
2489000000,-13.422966,49.037231
2493500000,-13.559328,44.837761
2498000000,-13.627731,40.283478
2502500000,-13.860196,35.479279
2507000000,-14.060711,30.56744
2511500000,-14.277718,25.262712
2516000000,-14.609781,19.427309
2520500000,-14.955668,14.465892
2525000000,-15.069624,9.5060053
2529500000,-15.138461,2.4475262
2534000000,-15.35831,-4.1022816
2538500000,-15.408176,-10.600751
2543000000,-15.495653,-18.365074
2547500000,-15.853531,-24.927532
2552000000,-16.154499,-30.780146
2556500000,-16.326191,-36.474354
2561000000,-16.730206,-41.473114
2565500000,-17.07712,-46.630596
2570000000,-17.470741,-51.701618
2574500000,-17.91481,-56.883904
2579000000,-18.419079,-62.389626
2583500000,-19.010731,-68.540092
2588000000,-19.658918,-75.58149
2592500000,-20.30571,-82.8806
2597000000,-21.012215,-92.866653
2601500000,-21.447807,-102.64703
2606000000,-21.832142,-114.63426
2610500000,-22.081964,-125.40801
2615000000,-22.111769,-135.63466
2619500000,-21.729862,-145.9789
2624000000,-21.541449,-154.69743
2628500000,-21.235163,-161.03795
2633000000,-20.78578,-167.79865
2637500000,-20.545012,-174.1817
2642000000,-20.305418,-179.7662
2646500000,-20.023367,173.92621
2651000000,-19.970018,166.95049
2655500000,-19.963362,161.28818
2660000000,-19.968599,154.94214
2664500000,-19.789312,149.07433
2669000000,-19.573236,143.29849
2673500000,-19.091875,136.25035
2678000000,-18.584875,128.86342
2682500000,-18.173742,121.31204
2687000000,-17.657255,114.85266
2691500000,-17.26792,108.62585
2696000000,-16.940754,103.19555
2700500000,-16.574646,99.269699
2705000000,-16.138783,95.010384
2709500000,-15.810583,91.23584
2714000000,-15.484484,87.982605
2718500000,-15.226233,84.803551
2723000000,-15.055326,80.909615
2727500000,-14.903455,77.480133
2732000000,-14.824518,74.206558
2736500000,-14.703788,70.159973
2741000000,-14.665714,65.807381
2745500000,-14.725391,61.479382
2750000000,-14.656344,56.868191
2754500000,-14.697293,51.777397
2759000000,-14.702411,47.367374
2763500000,-14.587254,42.738899
2768000000,-14.52777,37.769318
2772500000,-14.503973,33.11256
2777000000,-14.262228,29.052305
2781500000,-14.188447,24.824961
2786000000,-14.061436,20.972902
2790500000,-13.88468,17.980104
2795000000,-13.726606,14.378345
2799500000,-13.682734,11.272367
2804000000,-13.599036,8.6099005
2808500000,-13.549655,4.7776256
2813000000,-13.699859,1.7102715
2817500000,-13.715181,-1.0253868
2822000000,-13.815435,-4.7555814
2826500000,-14.092628,-8.0357418
2831000000,-14.182756,-11.19532
2835500000,-14.308232,-15.874066
2840000000,-14.47742,-20.964563
2844500000,-14.664155,-24.817757
2849000000,-14.728577,-30.173386
2853500000,-14.929059,-35.286438
2858000000,-14.98727,-39.757042
2862500000,-14.950305,-44.623966
2867000000,-15.066117,-49.273571
2871500000,-15.1015,-53.198383
2876000000,-15.036137,-57.128628
2880500000,-15.11992,-61.145874
2885000000,-15.224825,-64.390236
2889500000,-15.332317,-67.997917
2894000000,-15.531021,-71.252449
2898500000,-15.799563,-74.449409
2903000000,-16.113966,-77.312897
2907500000,-16.45541,-80.658905
2912000000,-16.874109,-84.303055
2916500000,-17.388664,-88.479706
2921000000,-17.789021,-92.214401
2925500000,-18.292988,-96.176186
2930000000,-18.704395,-101.46201
2934500000,-19.119762,-105.56019
2939000000,-19.385216,-110.96516
2943500000,-19.59354,-114.6282
2948000000,-19.7717,-119.23343
2952500000,-19.729027,-124.5557
2957000000,-19.801281,-128.64305
2961500000,-19.664083,-131.71968
2966000000,-19.525085,-135.02704
2970500000,-19.568094,-138.37822
2975000000,-19.539337,-141.03416
2979500000,-19.478935,-143.50706
2984000000,-19.622316,-145.9175
2988500000,-19.709761,-148.13031
2993000000,-19.817369,-150.93355
2997500000,-20.122465,-154.42296
3002000000,-20.16457,-157.97255
3006500000,-20.450481,-162.97888
3011000000,-20.674217,-168.31381
3015500000,-20.843712,-174.52605
3020000000,-21.003365,177.73035
3024500000,-21.159111,171.43823
3029000000,-20.962944,165.3192
3033500000,-20.611872,158.27779
3038000000,-20.475533,152.60358
3042500000,-20.13508,147.89481
3047000000,-19.680387,142.08914
3051500000,-19.472298,138.33025
3056000000,-19.189758,134.78296
3060500000,-18.884466,130.48956
3065000000,-18.779974,126.75811
3069500000,-18.694492,122.53533
3074000000,-18.677464,117.85214
3078500000,-18.872066,113.4312
3083000000,-19.069408,108.97935
3087500000,-19.307329,103.73132
3092000000,-19.509361,98.14566
3096500000,-19.664972,93.070038
3101000000,-19.73258,85.756813
3105500000,-19.765894,78.254395
3110000000,-19.861067,71.17511
3114500000,-19.837233,64.378143
3119000000,-19.730286,57.973957
3123500000,-19.761106,52.440861
3128000000,-19.767483,47.574585
3132500000,-19.626934,43.993584
3137000000,-19.659994,40.543045
3141500000,-19.77734,37.207001
3146000000,-19.809708,34.935566
3150500000,-20.074797,31.798851
3155000000,-20.567213,29.346321
3159500000,-21.24823,28.306999
3164000000,-21.819912,27.084278
3168500000,-22.599306,27.56901
3173000000,-23.374701,27.798449
