!CSV A.01.01
!Agilent Technologies,E8361C,US49010233,A.09.22.11
!Agilent E8361C: A.09.22.11
!Date: Wednesday, September 28, 2022 13:07:55
!Source: Standard

BEGIN CH1_DATA
Freq(Hz),S11(DB),S11(DEG)
500000000,-0.2670891,165.7449
504500000,-0.28146023,164.39006
509000000,-0.26637739,162.8932
513500000,-0.275491,161.18816
518000000,-0.28515691,159.68776
522500000,-0.28133601,158.13513
527000000,-0.27757812,156.55211
531500000,-0.26732534,155.30916
536000000,-0.27089462,153.58792
540500000,-0.30286711,151.9808
545000000,-0.30526218,150.5182
549500000,-0.30104837,148.90005
554000000,-0.27657813,147.40138
558500000,-0.31284022,145.92601
563000000,-0.31816426,144.2308
567500000,-0.31747419,142.73621
572000000,-0.33120915,140.89653
576500000,-0.32283011,139.58391
581000000,-0.30426162,138.01892
585500000,-0.29039198,136.42854
590000000,-0.31708574,134.96909
594500000,-0.31980041,133.35596
599000000,-0.30185783,131.75465
603500000,-0.31894404,130.33055
608000000,-0.33520907,128.9243
612500000,-0.33114412,127.49476
617000000,-0.34474471,126.04792
621500000,-0.32878143,124.69212
626000000,-0.33868164,123.0422
630500000,-0.3478449,121.93027
635000000,-0.34669772,120.15464
639500000,-0.33172998,118.79293
644000000,-0.37871838,117.53155
648500000,-0.34878275,115.91282
653000000,-0.35632265,114.45734
657500000,-0.36293614,113.00041
662000000,-0.36373439,111.44904
666500000,-0.36812082,109.94566
671000000,-0.37014642,108.3512
675500000,-0.35766333,106.61842
680000000,-0.40471703,105.27623
684500000,-0.36804524,103.98895
689000000,-0.36160615,102.43286
693500000,-0.39569721,100.86384
698000000,-0.37317172,99.27317
702500000,-0.37426227,98.038818
707000000,-0.37250623,96.663177
711500000,-0.37246588,95.303719
716000000,-0.35811114,93.822212
720500000,-0.38507244,92.386055
725000000,-0.39254862,91.024551
729500000,-0.37944868,89.543831
734000000,-0.37264669,88.332703
738500000,-0.38150391,86.680283
743000000,-0.37564054,85.453506
747500000,-0.37445998,84.006264
752000000,-0.39987001,82.512337
756500000,-0.39196077,81.105247
761000000,-0.3759113,79.519485
765500000,-0.4089514,77.970314
770000000,-0.41447514,76.580261
774500000,-0.42523879,74.996216
779000000,-0.41844511,73.434258
783500000,-0.41797763,72.01506
788000000,-0.408921,70.561272
792500000,-0.40782437,68.766808
797000000,-0.42084789,67.59182
801500000,-0.41703591,66.24147
806000000,-0.4143005,64.789291
810500000,-0.40093681,63.219727
815000000,-0.43015882,61.934101
819500000,-0.4228425,60.349293
824000000,-0.45417282,59.183617
828500000,-0.41859105,58.024212
833000000,-0.41563317,56.388783
837500000,-0.4647955,54.772221
842000000,-0.43642148,53.845917
846500000,-0.43520975,52.016499
851000000,-0.44607243,50.448296
855500000,-0.46026924,49.224148
860000000,-0.43155718,47.520512
864500000,-0.45438987,45.897518
869000000,-0.44117898,44.701744
873500000,-0.43362144,42.889835
878000000,-0.47399944,41.216507
882500000,-0.49870634,39.859428
887000000,-0.3971456,38.224819
891500000,-0.49745637,36.382263
896000000,-0.48283717,35.461998
900500000,-0.44060504,33.399181
905000000,-0.47545707,31.946468
909500000,-0.47407186,30.75321
914000000,-0.45588878,29.223549
918500000,-0.5100385,27.748747
923000000,-0.4817186,26.339157
927500000,-0.45571646,24.783928
932000000,-0.5181964,22.904783
936500000,-0.52984792,21.901596
941000000,-0.45179683,20.011009
945500000,-0.52159089,18.412636
950000000,-0.54229093,17.091806
954500000,-0.49712947,15.07585
959000000,-0.54385108,13.187282
963500000,-0.54859763,11.903794
968000000,-0.50804436,9.7617836
972500000,-0.57287663,7.4542084
977000000,-0.59455574,6.1103597
981500000,-0.54005104,4.0951223
986000000,-0.56002533,1.7404253
990500000,-0.63641733,0.37927505
995000000,-0.54574013,-2.2114592
999500000,-0.67966878,-4.3532329
1004000000,-0.67921209,-6.0021238
1008500000,-0.62451631,-8.4778042
1013000000,-0.76217628,-10.98042
1017500000,-0.82866973,-12.722936
1022000000,-0.78987712,-15.127804
1026500000,-0.94293916,-18.538275
1031000000,-1.0740465,-20.33987
1035500000,-1.069783,-23.421953
1040000000,-1.283653,-27.099161
1044500000,-1.5072224,-30.234751
1049000000,-1.662577,-33.984489
1053500000,-2.0630939,-38.885563
1058000000,-2.5712016,-43.12328
1062500000,-3.1764469,-47.911182
1067000000,-4.0882802,-53.269081
1071500000,-5.3950887,-57.631817
1076000000,-7.1117187,-60.294964
1080500000,-9.4050474,-59.721516
1085000000,-12.204696,-49.694706
1089500000,-13.803722,-24.592436
1094000000,-12.095833,-0.83564544
1098500000,-9.5453577,7.1748338
1103000000,-7.7139568,7.4829497
1107500000,-6.4651203,5.786212
1112000000,-5.4914007,3.4650612
1116500000,-4.7699032,0.3130953
1121000000,-4.3063107,-2.1967638
1125500000,-3.8122535,-4.1539226
1130000000,-3.3471284,-6.7723036
1134500000,-2.905046,-9.0585127
1139000000,-2.5447795,-13.796249
1143500000,-2.560859,-16.806118
1148000000,-2.5104511,-19.059814
1152500000,-2.3807244,-20.918102
1157000000,-2.2226188,-23.671415
1161500000,-2.2216184,-26.305847
1166000000,-2.1624517,-28.274609
1170500000,-2.0305719,-30.859642
1175000000,-2.1111937,-33.640808
1179500000,-2.0999439,-35.48127
1184000000,-2.0389817,-37.799187
1188500000,-2.0889673,-40.247414
1193000000,-2.0823276,-42.169594
1197500000,-2.0795844,-44.456882
1202000000,-2.1984961,-46.748901
1206500000,-2.2235615,-48.217072
1211000000,-2.2394574,-49.892307
1215500000,-2.3075292,-51.642769
1220000000,-2.3426609,-52.674381
1224500000,-2.2644401,-54.059788
1229000000,-2.3360155,-55.946423
1233500000,-2.3832669,-57.156128
1238000000,-2.3269417,-58.721855
1242500000,-2.3655093,-60.639057
1247000000,-2.4132147,-62.127216
1251500000,-2.4293032,-64.135864
1256000000,-2.5586936,-65.903145
1260500000,-2.6605716,-67.182053
1265000000,-2.6695173,-68.666275
1269500000,-2.7837999,-70.351639
1274000000,-2.8219688,-71.822449
1278500000,-2.8075731,-73.480972
1283000000,-2.8529294,-75.059692
1287500000,-2.9184432,-76.562508
1292000000,-2.8648238,-78.002022
1296500000,-2.9594772,-80.122864
1301000000,-2.9881911,-81.238403
1305500000,-2.9766738,-82.73938
1310000000,-3.0231826,-84.389351
1314500000,-3.0533471,-85.768387
1319000000,-3.0288026,-87.295975
1323500000,-3.0699911,-88.894508
1328000000,-3.0628624,-90.030327
1332500000,-3.0647459,-91.594528
1337000000,-3.1278214,-93.415833
1341500000,-3.1507788,-94.851013
1346000000,-3.1261098,-96.637848
1350500000,-3.2383559,-98.513687
1355000000,-3.2844017,-99.789711
1359500000,-3.2839363,-101.65676
1364000000,-3.319694,-103.79173
1368500000,-3.387799,-105.70546
1373000000,-3.3955591,-107.86282
1377500000,-3.4529424,-110.08945
1382000000,-3.515517,-112.33929
1386500000,-3.6079495,-114.63168
1391000000,-3.701648,-116.92034
1395500000,-3.781692,-119.26817
1400000000,-3.8706098,-121.51502
1404500000,-4.0165377,-123.98634
1409000000,-4.1410327,-126.47397
1413500000,-4.3186765,-128.83344
1418000000,-4.6003199,-130.957
1422500000,-4.9320769,-133.68277
1427000000,-5.5099092,-135.47932
1431500000,-6.2689261,-134.89008
1436000000,-6.7030611,-129.2903
1440500000,-5.9999795,-125.08012
1445000000,-5.2802238,-127.68021
1449500000,-5.0919795,-131.53349
1454000000,-5.1480432,-134.73627
1458500000,-5.2431974,-137.24324
1463000000,-5.3599496,-139.82051
1467500000,-5.5383844,-142.02188
1472000000,-5.6076097,-144.0582
1476500000,-5.7200289,-146.42082
1481000000,-5.8723159,-148.70683
1485500000,-5.9979434,-150.77672
1490000000,-6.0804477,-153.27101
1494500000,-6.2765532,-155.49026
1499000000,-6.3701148,-157.45296
1503500000,-6.4820924,-159.55229
1508000000,-6.6363935,-161.42798
1512500000,-6.7404642,-163.57898
1517000000,-6.9210029,-165.81517
1521500000,-7.0091143,-167.52632
1526000000,-7.1577997,-170.05046
1530500000,-7.3841977,-172.42007
1535000000,-7.5477724,-174.66481
1539500000,-7.7782397,-177.69209
1544000000,-8.1802044,179.49408
1548500000,-8.5632963,177.16264
1553000000,-8.9112921,174.02296
1557500000,-9.4590788,171.11214
1562000000,-9.9724188,168.94322
1566500000,-10.488202,165.80591
1571000000,-11.222494,163.15636
1575500000,-11.951177,161.34613
1580000000,-12.656913,159.11177
1584500000,-13.523554,157.53001
1589000000,-14.341725,157.05467
1593500000,-15.107947,156.67015
1598000000,-16.208389,157.0533
1602500000,-17.183218,159.58742
1607000000,-18.038723,162.89317
1611500000,-18.992645,167.2793
1616000000,-19.903137,174.89478
1620500000,-20.424109,-174.56915
1625000000,-20.389019,-162.89046
1629500000,-19.602751,-152.91035
1634000000,-18.549437,-146.50911
1638500000,-17.521772,-142.10858
1643000000,-16.618732,-139.80977
1647500000,-15.791047,-138.43854
1652000000,-15.028031,-137.5002
1656500000,-14.236061,-138.12285
1661000000,-13.637256,-139.35228
1665500000,-13.118178,-140.8044
1670000000,-12.655694,-142.79601
1674500000,-12.344901,-145.37523
1679000000,-12.070465,-147.69209
1683500000,-11.777753,-150.27322
1688000000,-11.557223,-153.22423
1692500000,-11.328038,-155.31078
1697000000,-11.094514,-158.38979
1701500000,-10.939769,-161.4184
1706000000,-10.774529,-163.91798
1710500000,-10.563288,-166.78178
1715000000,-10.474429,-169.7506
1719500000,-10.352389,-171.88666
1724000000,-10.185312,-174.03209
1728500000,-10.090449,-176.48898
1733000000,-10.00867,-178.21397
1737500000,-9.846961,179.70264
1742000000,-9.7685881,177.14204
1746500000,-9.7500772,175.58731
1751000000,-9.5794153,173.54956
1755500000,-9.567441,170.65427
1760000000,-9.6034651,168.94933
1764500000,-9.513999,166.55467
1769000000,-9.557147,163.83269
1773500000,-9.5974951,161.70442
1778000000,-9.5210505,159.07101
1782500000,-9.5626173,155.61032
1787000000,-9.6331129,152.96599
1791500000,-9.5813398,150.11911
1796000000,-9.5908623,146.51369
1800500000,-9.6693144,143.80173
1805000000,-9.5588655,140.84485
1809500000,-9.5586147,137.16743
1814000000,-9.5982208,134.42467
1818500000,-9.5410004,131.71652
1823000000,-9.5012388,128.29254
1827500000,-9.5618486,125.74226
1832000000,-9.4943876,123.07613
1836500000,-9.4773502,119.66962
1841000000,-9.5672855,117.24123
1845500000,-9.4935617,114.32066
1850000000,-9.515008,110.70166
1854500000,-9.5945463,107.43378
1859000000,-9.6284266,104.16919
1863500000,-9.6462154,99.626305
1868000000,-9.8094978,95.624062
1872500000,-9.7970486,91.148132
1877000000,-9.8994093,85.969017
1881500000,-10.01042,80.944672
1886000000,-10.093086,76.024086
1890500000,-10.094416,70.466919
1895000000,-10.156536,64.949768
1899500000,-10.186333,59.464577
1904000000,-10.234809,54.007195
1908500000,-10.283073,48.462685
1913000000,-10.370022,42.769638
1917500000,-10.406521,37.625153
1922000000,-10.482075,31.992935
1926500000,-10.604352,26.212154
1931000000,-10.692368,20.408573
1935500000,-10.835115,14.803119
1940000000,-10.92492,8.3898325
1944500000,-11.097372,1.8722793
1949000000,-11.149557,-4.4322419
1953500000,-11.143388,-12.1136
1958000000,-11.291093,-19.494753
1962500000,-11.321631,-26.783495
1967000000,-11.236698,-34.561993
1971500000,-11.334922,-42.312149
1976000000,-11.33347,-48.740234
1980500000,-11.139259,-55.607018
1985000000,-11.131483,-62.618008
1989500000,-11.092448,-68.51358
1994000000,-10.989526,-74.419136
1998500000,-10.973392,-80.53685
2003000000,-11.054796,-85.446045
2007500000,-11.032516,-90.424911
2012000000,-11.047613,-95.34227
2016500000,-11.120858,-100.07727
2021000000,-11.131177,-104.55091
2025500000,-11.147808,-109.14381
2030000000,-11.235914,-113.46305
2034500000,-11.148822,-117.58327
2039000000,-11.031379,-121.98119
2043500000,-10.977421,-126.25125
2048000000,-10.831147,-130.37495
2052500000,-10.651284,-134.21176
2057000000,-10.482396,-137.99599
2061500000,-10.254917,-141.70097
2066000000,-10.062142,-145.18294
2070500000,-9.7889652,-148.44182
2075000000,-9.56213,-152.01651
2079500000,-9.3442125,-154.9875
2084000000,-9.1347446,-158.62938
2088500000,-9.0515423,-161.84805
2093000000,-8.9568987,-164.75282
2097500000,-8.8057919,-167.80885
2102000000,-8.713892,-171.03087
2106500000,-8.6086369,-173.84689
2111000000,-8.4391165,-177.13368
2115500000,-8.3635559,178.9584
2120000000,-8.2753439,175.85217
2124500000,-8.0707989,171.93279
2129000000,-7.9939213,167.71985
2133500000,-7.9416523,164.32982
2138000000,-7.723856,160.55096
2142500000,-7.5864677,156.24319
2147000000,-7.5244207,152.70927
2151500000,-7.3128176,149.37177
2156000000,-7.20051,145.21378
2160500000,-7.1627188,141.98256
2165000000,-6.9191546,138.6702
2169500000,-6.8171291,134.42514
2174000000,-6.8235955,131.36102
2178500000,-6.6825905,127.88818
2183000000,-6.6368232,123.57076
2187500000,-6.6837001,119.92529
2192000000,-6.6673336,116.68975
2196500000,-6.6931872,112.22553
2201000000,-6.8304753,108.22191
2205500000,-6.8530459,104.85562
2210000000,-6.8858256,100.25645
2214500000,-7.072773,96.048187
2219000000,-7.0842738,91.896744
2223500000,-7.1455617,87.134071
2228000000,-7.2346849,82.747574
2232500000,-7.2907805,78.776253
2237000000,-7.3923178,74.02346
2241500000,-7.4617085,69.858353
2246000000,-7.5014195,65.533379
2250500000,-7.6610131,60.969234
2255000000,-7.8148117,57.395264
2259500000,-7.9313326,53.435432
2264000000,-8.1379089,48.680149
2268500000,-8.3807545,44.913437
2273000000,-8.5922546,40.909878
2277500000,-8.8428783,36.239376
2282000000,-9.2297783,31.698078
2286500000,-9.5060692,27.140011
2291000000,-9.8834381,21.637205
2295500000,-10.366003,16.525827
2300000000,-10.711009,11.34611
2304500000,-11.099127,5.1342945
2309000000,-11.599405,-0.77916038
2313500000,-12.084144,-6.3094273
2318000000,-12.434003,-12.167252
2322500000,-12.860667,-18.162878
2327000000,-13.171404,-23.97451
2331500000,-13.579736,-30.526646
2336000000,-13.889298,-37.320843
2340500000,-14.408504,-44.850285
2345000000,-15.084929,-52.45982
2349500000,-15.751044,-59.476974
2354000000,-16.539227,-67.826645
2358500000,-17.499025,-75.950417
2363000000,-18.345444,-84.457214
2367500000,-19.098284,-94.799828
2372000000,-19.841356,-106.25397
2376500000,-20.209137,-118.55222
2381000000,-20.159866,-132.68108
2385500000,-20.11507,-146.98712
2390000000,-19.624123,-159.55624
2394500000,-19.04594,-170.14055
2399000000,-18.457176,179.61697
2403500000,-18.072531,170.59915
2408000000,-17.466301,163.46651
2412500000,-17.03466,155.54622
2417000000,-16.611322,148.37624
2421500000,-16.291918,141.16039
2426000000,-16.052668,133.87909
2430500000,-15.872774,126.28866
2435000000,-15.77116,118.80122
2439500000,-15.56201,112.2175
2444000000,-15.396506,105.61761
2448500000,-15.192151,98.032936
2453000000,-14.993824,92.224724
2457500000,-14.696435,85.987762
2462000000,-14.481318,79.882004
2466500000,-14.253665,74.919357
2471000000,-13.957048,70.278595
2475500000,-13.707806,64.660019
2480000000,-13.645298,59.836643
2484500000,-13.516841,55.656132
2489000000,-13.494444,50.303246
2493500000,-13.604202,45.825199
2498000000,-13.680195,42.135082
2502500000,-13.810848,36.859303
2507000000,-14.014081,31.73105
2511500000,-14.189186,26.819262
2516000000,-14.432985,20.788137
2520500000,-14.793466,14.933075
2525000000,-14.998292,9.4619389
2529500000,-15.071542,2.7882905
2534000000,-15.289521,-3.8530941
2538500000,-15.427706,-10.308135
2543000000,-15.649653,-17.204739
2547500000,-15.914491,-23.521463
2552000000,-16.208,-29.572924
2556500000,-16.366955,-34.256641
2561000000,-16.680479,-39.567078
2565500000,-16.978346,-44.662895
2570000000,-17.352121,-49.644024
2574500000,-17.707285,-54.555687
2579000000,-18.12822,-60.061665
2583500000,-18.692022,-66.691612
2588000000,-19.255949,-73.925613
2592500000,-19.81282,-82.111382
2597000000,-20.581055,-92.661995
2601500000,-21.068069,-101.82211
2606000000,-21.480759,-113.0275
2610500000,-21.746487,-124.55109
2615000000,-21.864233,-133.66881
2619500000,-21.490709,-142.86694
2624000000,-21.126701,-151.77582
2628500000,-20.802744,-159.03233
2633000000,-20.369692,-166.00154
2637500000,-20.065784,-172.56564
2642000000,-19.841442,-179.15576
2646500000,-19.582241,174.23505
2651000000,-19.55003,167.23154
2655500000,-19.514105,160.51961
2660000000,-19.651785,154.51527
2664500000,-19.487175,148.85529
2669000000,-19.250504,142.81332
2673500000,-18.875732,135.33765
2678000000,-18.38677,128.18483
2682500000,-17.964508,120.65401
2687000000,-17.619881,113.86569
2691500000,-17.215654,108.36576
2696000000,-16.809523,103.01381
2700500000,-16.424145,98.213554
2705000000,-16.128265,94.477425
2709500000,-15.748603,91.081825
2714000000,-15.418117,87.164047
2718500000,-15.221783,84.171593
2723000000,-14.967586,80.576355
2727500000,-14.833163,76.842163
2732000000,-14.811668,73.335777
2736500000,-14.647727,69.854279
2741000000,-14.637592,65.265251
2745500000,-14.695998,60.706375
2750000000,-14.653578,56.438049
2754500000,-14.641957,51.354774
2759000000,-14.711465,46.816875
2763500000,-14.647963,42.142746
2768000000,-14.548228,37.689075
2772500000,-14.539277,32.82909
2777000000,-14.357949,29.521843
2781500000,-14.096956,25.452297
2786000000,-13.985807,21.270361
2790500000,-13.830263,18.028
2795000000,-13.591954,14.595177
2799500000,-13.554052,11.126934
2804000000,-13.502727,8.1669416
2808500000,-13.416024,4.6478639
2813000000,-13.517644,0.99858242
2817500000,-13.605307,-2.1173587
2822000000,-13.708391,-5.5531712
2826500000,-13.941339,-9.4838247
2831000000,-14.116883,-13.321589
2835500000,-14.274993,-17.573723
2840000000,-14.44105,-22.267935
2844500000,-14.660189,-26.746264
2849000000,-14.849714,-31.59009
2853500000,-14.939966,-36.523464
2858000000,-15.102812,-41.709209
2862500000,-15.161801,-46.184345
2867000000,-15.173221,-50.456409
2871500000,-15.186524,-54.456947
2876000000,-15.24174,-58.303608
2880500000,-15.317362,-62.235981
2885000000,-15.426695,-65.809212
2889500000,-15.654222,-69.155403
2894000000,-15.848064,-71.933403
2898500000,-16.049221,-74.728348
2903000000,-16.433386,-77.522438
2907500000,-16.789516,-80.355423
2912000000,-17.186039,-83.684326
2916500000,-17.683607,-88.0942
2921000000,-18.16684,-91.23172
2925500000,-18.528196,-94.972549
2930000000,-18.959515,-99.794075
2934500000,-19.481823,-103.49526
2939000000,-19.631945,-108.34306
2943500000,-19.842615,-112.52402
2948000000,-19.999628,-116.45303
2952500000,-19.901762,-121.15525
2957000000,-19.865627,-126.01944
2961500000,-19.771215,-128.51607
2966000000,-19.440651,-131.96434
2970500000,-19.44227,-136.07861
2975000000,-19.391617,-138.50645
2979500000,-19.280842,-140.56845
2984000000,-19.362877,-143.76282
2988500000,-19.492649,-146.32903
2993000000,-19.538212,-149.19005
2997500000,-19.672043,-152.46667
3002000000,-19.832497,-156.60706
3006500000,-19.992477,-161.79715
3011000000,-20.244989,-167.38976
3015500000,-20.521749,-174.12767
3020000000,-20.629648,179.29295
3024500000,-20.729725,172.20398
3029000000,-20.660303,165.69186
3033500000,-20.319204,158.78891
3038000000,-20.071043,152.95773
3042500000,-19.822868,147.38242
3047000000,-19.377018,142.39418
3051500000,-19.142941,138.13077
3056000000,-18.84483,133.80037
3060500000,-18.675308,129.60371
3065000000,-18.489529,126.0006
3069500000,-18.436483,121.60554
3074000000,-18.521219,117.03613
3078500000,-18.657923,112.4677
3083000000,-18.78887,107.33788
3087500000,-19.170069,102.29469
3092000000,-19.315275,97.078453
3096500000,-19.424355,91.37616
3101000000,-19.616997,84.463783
3105500000,-19.639769,77.479424
3110000000,-19.613966,69.493118
3114500000,-19.707632,62.661858
3119000000,-19.676863,56.663883
3123500000,-19.609669,51.016254
3128000000,-19.668188,46.234264
3132500000,-19.565416,42.444271
3137000000,-19.540632,38.991753
3141500000,-19.709328,35.661205
3146000000,-19.850021,33.063362
3150500000,-20.030138,30.768789
3155000000,-20.522774,27.748589
3159500000,-21.291033,26.170111
3164000000,-21.824051,24.834982
3168500000,-22.724184,25.080568
