!CSV A.01.01,,,
!Agilent Technologies,E8361C,US49010233,A.09.22.11
!Agilent E8361C: A.09.22.11,,,
!Date: Wednesday, September 28, 2022 13:08:14,
!Source: Standard,,,
,,,
BEGIN CH1_DATA,,,
Freq(Hz),S12(DB),S12(DEG),
500000000,-79.411751,-134.16528,
504500000,-74.682045,-107.00462,
509000000,-73.675179,-55.007103,
513500000,-72.232468,-87.309586,
518000000,-70.216362,7.9209156,
522500000,-74.872032,27.61244,
527000000,-66.267677,-25.306362,
531500000,-75.631599,-115.97936,
536000000,-62.012367,179.33064,
540500000,-66.503738,-89.768166,
545000000,-65.254814,135.22668,
549500000,-74.172188,-109.67493,
554000000,-76.458618,-109.30611,
558500000,-71.953514,-1.2928793,
563000000,-74.906731,118.67588,
567500000,-66.394791,100.01305,
572000000,-72.810326,-68.253242,
576500000,-72.230766,-153.37546,
581000000,-73.807289,-168.64633,
585500000,-67.766228,-124.42766,
590000000,-70.642464,153.63654,
594500000,-69.109184,-168.00264,
599000000,-74.083229,-74.095352,
603500000,-79.86264,-123.10021,
608000000,-65.435448,168.23128,
612500000,-70.306427,45.384392,
617000000,-83.81749,-19.435959,
621500000,-64.934547,29.407248,
626000000,-73.945625,23.334688,
630500000,-68.821678,96.72937,
635000000,-70.362198,-72.346992,
639500000,-69.076431,172.32419,
644000000,-80.40995,-104.55087,
648500000,-70.7248,-84.661598,
653000000,-71.417091,-154.64442,
657500000,-68.25695,-158.5553,
662000000,-67.07431,75.228195,
666500000,-65.418663,-77.339752,
671000000,-68.572342,143.98604,
675500000,-79.291763,-20.226593,
680000000,-67.305206,93.908569,
684500000,-68.899529,-169.05354,
689000000,-80.901627,-47.170544,
693500000,-87.619453,176.28989,
698000000,-73.232689,88.080574,
702500000,-80.452042,-130.44064,
707000000,-73.31839,-165.97052,
711500000,-73.476067,-93.36306,
716000000,-73.158318,45.234074,
720500000,-72.536728,-128.13797,
725000000,-74.60421,4.3885102,
729500000,-69.998657,65.085846,
734000000,-76.928902,-88.006516,
738500000,-72.832115,108.76691,
743000000,-65.27401,70.034134,
747500000,-72.670822,4.7899709,
752000000,-86.996277,-88.953728,
756500000,-63.042377,-102.27251,
761000000,-63.786503,-8.2430344,
765500000,-75.21582,140.65001,
770000000,-64.868637,13.791791,
774500000,-76.543282,-81.920906,
779000000,-69.194244,-56.953419,
783500000,-83.662224,30.499077,
788000000,-64.955215,-8.9399509,
792500000,-63.281025,10.071242,
797000000,-71.163139,135.11978,
801500000,-84.711792,-174.22604,
806000000,-66.902885,-115.69558,
810500000,-68.002945,-57.583733,
815000000,-60.073509,-128.42917,
819500000,-64.197174,-49.303799,
824000000,-68.934303,-64.032051,
828500000,-59.60841,-83.810822,
833000000,-66.172653,-15.55232,
837500000,-65.799263,-123.61349,
842000000,-66.443672,121.88977,
846500000,-70.475533,-109.9753,
851000000,-66.034538,-156.56628,
855500000,-69.847496,175.77484,
860000000,-76.852135,-73.80735,
864500000,-67.54464,-121.59476,
869000000,-69.663162,-152.59604,
873500000,-80.207474,178.25211,
878000000,-85.921425,121.12677,
882500000,-78.062263,92.118629,
887000000,-66.880013,-79.384766,
891500000,-67.316322,-66.123695,
896000000,-68.770638,-129.5361,
900500000,-78.380653,-49.932266,
905000000,-73.590942,-16.224701,
909500000,-66.282784,-86.783623,
914000000,-75.313828,-106.15478,
918500000,-60.472858,-143.80887,
923000000,-69.894119,178.72043,
927500000,-62.32238,-176.5934,
932000000,-70.488495,166.02736,
936500000,-66.583687,103.98766,
941000000,-68.554672,152.14423,
945500000,-64.206635,-148.77907,
950000000,-61.728016,-156.43637,
954500000,-68.695053,172.0742,
959000000,-75.74369,-129.60324,
963500000,-70.37896,113.43327,
968000000,-66.338509,-154.32202,
972500000,-60.266346,-146.16362,
977000000,-57.61459,-145.8246,
981500000,-59.111984,172.73784,
986000000,-60.134583,-170.11633,
990500000,-59.633305,-174.77779,
995000000,-56.704056,-156.99872,
999500000,-53.216671,-160.35469,
1004000000,-52.16465,-164.78484,
1008500000,-49.907963,170.62021,
1013000000,-47.118916,162.37921,
1017500000,-46.286579,153.3949,
1022000000,-44.90012,143.8882,
1026500000,-44.639732,132.8911,
1031000000,-44.242264,121.34367,
1035500000,-42.505672,119.57594,
1040000000,-40.94054,111.12087,
1044500000,-39.525589,99.06675,
1049000000,-37.943871,84.862755,
1053500000,-37.204292,68.957184,
1058000000,-36.937813,56.709564,
1062500000,-36.485817,45.789173,
1067000000,-35.710148,36.834869,
1071500000,-34.612415,25.179562,
1076000000,-33.668873,11.552745,
1080500000,-33.10022,-3.2613726,
1085000000,-32.717525,-18.229153,
1089500000,-32.393543,-32.981102,
1094000000,-32.558872,-47.292488,
1098500000,-32.671402,-60.600513,
1103000000,-32.974739,-74.225159,
1107500000,-33.322544,-88.351677,
1112000000,-33.8325,-98.996483,
1116500000,-35.006409,-111.55693,
1121000000,-35.916435,-117.00715,
1125500000,-36.407238,-123.14602,
1130000000,-36.404602,-128.0506,
1134500000,-36.465504,-136.629,
1139000000,-36.523937,-138.09734,
1143500000,-35.676861,-149.95404,
1148000000,-36.290062,-161.59151,
1152500000,-37.062977,-172.80707,
1157000000,-38.34642,-176.69934,
1161500000,-38.659397,-177.67053,
1166000000,-38.725117,-178.01299,
1170500000,-38.20842,-177.80855,
1175000000,-37.637794,176.67525,
1179500000,-36.794872,169.17931,
1184000000,-36.061653,158.42294,
1188500000,-35.788303,148.14536,
1193000000,-36.427338,137.76334,
1197500000,-37.05323,132.40034,
1202000000,-37.911179,127.60239,
1206500000,-38.472919,126.64992,
1211000000,-37.699242,131.02716,
1215500000,-36.429207,127.22055,
1220000000,-35.154137,118.86353,
1224500000,-34.043388,106.01727,
1229000000,-34.424171,91.0019,
1233500000,-34.802639,80.907768,
1238000000,-35.726467,71.452248,
1242500000,-36.065784,65.199814,
1247000000,-37.108566,61.669888,
1251500000,-37.480148,59.522388,
1256000000,-37.626957,61.750114,
1260500000,-36.46307,61.937809,
1265000000,-35.014336,56.902725,
1269500000,-33.796188,45.684715,
1274000000,-33.507286,31.050085,
1278500000,-33.481758,19.468185,
1283000000,-33.850101,9.4349422,
1287500000,-34.533089,2.1088941,
1292000000,-35.33847,-2.6608911,
1296500000,-35.541096,-4.6446166,
1301000000,-35.476067,-5.4966407,
1305500000,-34.6036,-5.9206476,
1310000000,-33.659393,-14.184701,
1314500000,-32.758801,-24.617304,
1319000000,-32.910892,-37.972179,
1323500000,-33.404659,-47.855839,
1328000000,-34.38414,-53.53701,
1332500000,-34.987644,-57.089252,
1337000000,-35.219311,-57.360565,
1341500000,-35.300194,-57.672993,
1346000000,-34.574547,-57.766388,
1350500000,-33.605453,-62.423779,
1355000000,-32.645782,-71.67849,
1359500000,-32.223183,-81.074501,
1364000000,-31.84557,-90.707817,
1368500000,-32.21851,-100.68767,
1373000000,-32.639454,-107.46417,
1377500000,-33.004753,-112.35244,
1382000000,-32.982334,-115.00552,
1386500000,-32.800659,-115.68902,
1391000000,-31.945576,-120.51458,
1395500000,-30.829802,-126.66605,
1400000000,-29.985573,-137.19281,
1404500000,-29.694414,-148.74644,
1409000000,-29.659233,-160.0929,
1413500000,-29.899967,-168.85434,
1418000000,-30.21995,-175.61252,
1422500000,-30.170778,179.65013,
1427000000,-30.073519,172.99379,
1431500000,-29.965712,166.75571,
1436000000,-29.861544,162.26987,
1440500000,-29.38039,157.27802,
1445000000,-28.267452,148.84283,
1449500000,-28.017551,137.11635,
1454000000,-28.197969,124.69983,
1458500000,-28.730978,115.02448,
1463000000,-29.139044,107.5826,
1467500000,-29.52454,102.6985,
1472000000,-29.549757,100.43075,
1476500000,-29.005627,95.395599,
1481000000,-28.386366,86.336082,
1485500000,-28.247711,74.297363,
1490000000,-28.412359,62.737133,
1494500000,-29.007202,51.794239,
1499000000,-29.98535,42.351189,
1503500000,-31.050526,37.963993,
1508000000,-31.608303,34.686565,
1512500000,-31.899841,33.764332,
1517000000,-31.615023,30.793676,
1521500000,-31.400021,27.268944,
1526000000,-30.872852,22.218594,
1530500000,-30.373215,13.473475,
1535000000,-30.053112,2.9953666,
1539500000,-30.208548,-7.1146884,
1544000000,-30.668697,-16.325455,
1548500000,-31.410175,-22.090984,
1553000000,-31.834435,-26.947248,
1557500000,-32.15276,-30.35858,
1562000000,-32.108212,-34.108604,
1566500000,-31.714741,-37.570999,
1571000000,-31.573862,-41.718445,
1575500000,-31.17988,-49.334175,
1580000000,-30.917776,-58.452404,
1584500000,-30.901001,-66.68309,
1589000000,-31.27593,-76.047516,
1593500000,-31.649794,-82.278183,
1598000000,-31.978792,-88.55481,
1602500000,-32.178383,-95.096603,
1607000000,-32.189537,-101.24386,
1611500000,-32.305431,-109.10993,
1616000000,-32.643612,-117.55199,
1620500000,-33.394913,-124.78679,
1625000000,-34.102146,-130.20302,
1629500000,-34.502155,-133.42583,
1634000000,-34.92461,-138.67891,
1638500000,-34.906361,-141.22485,
1643000000,-35.279934,-146.33153,
1647500000,-35.428825,-151.62788,
1652000000,-35.877129,-153.27277,
1656500000,-35.956135,-158.68358,
1661000000,-35.634304,-160.45959,
1665500000,-35.478786,-166.83913,
1670000000,-35.350876,-171.5582,
1674500000,-35.489433,179.33098,
1679000000,-36.203484,173.2355,
1683500000,-36.655495,165.5898,
1688000000,-37.150932,164.72461,
1692500000,-37.958115,160.09157,
1697000000,-38.511887,162.03098,
1701500000,-38.538231,158.44456,
1706000000,-38.175266,157.55814,
1710500000,-37.973881,159.49832,
1715000000,-37.695259,155.99316,
1719500000,-37.48687,151.55679,
1724000000,-37.34679,147.22398,
1728500000,-37.845802,145.78198,
1733000000,-37.37851,146.34581,
1737500000,-36.501732,143.5224,
1742000000,-35.88546,137.96341,
1746500000,-35.070988,132.05066,
1751000000,-34.722012,124.77851,
1755500000,-34.495434,116.25593,
1760000000,-34.374104,107.687,
1764500000,-34.880867,100.3525,
1769000000,-35.130791,94.204025,
1773500000,-35.36113,91.770439,
1778000000,-35.413136,91.737045,
1782500000,-35.259583,90.818512,
1787000000,-34.420662,86.903999,
1791500000,-33.596725,84.359917,
1796000000,-32.838089,75.405258,
1800500000,-32.833485,66.422585,
1805000000,-32.88641,58.934608,
1809500000,-32.900524,52.960377,
1814000000,-32.871643,48.825375,
1818500000,-33.097889,47.267429,
1823000000,-32.819675,44.930923,
1827500000,-31.985054,42.463448,
1832000000,-31.299583,37.855255,
1836500000,-30.359463,31.713047,
1841000000,-29.896927,21.883274,
1845500000,-29.771589,12.793778,
1850000000,-29.956488,4.9368467,
1854500000,-29.858501,-0.28911892,
1859000000,-29.927322,-6.1672926,
1863500000,-29.500811,-8.8060713,
1868000000,-29.324497,-12.642833,
1872500000,-28.53842,-18.445024,
1877000000,-27.783695,-27.898766,
1881500000,-27.473955,-37.436893,
1886000000,-27.392134,-48.152809,
1890500000,-27.614872,-56.374111,
1895000000,-27.924911,-63.434708,
1899500000,-28.010077,-69.086693,
1904000000,-28.007776,-73.061508,
1908500000,-27.548584,-78.471184,
1913000000,-27.080549,-85.300613,
1917500000,-26.677607,-92.627975,
1922000000,-26.25835,-102.51369,
1926500000,-26.283205,-112.71615,
1931000000,-26.518398,-120.53442,
1935500000,-26.676085,-126.98219,
1940000000,-27.072899,-133.30211,
1944500000,-26.979544,-137.92493,
1949000000,-26.643629,-142.9521,
1953500000,-26.030085,-150.31851,
1958000000,-25.807936,-160.31126,
1962500000,-25.794594,-169.94247,
1967000000,-26.073814,-179.34874,
1971500000,-26.421452,172.61867,
1976000000,-26.957653,166.89194,
1980500000,-26.875761,163.10094,
1985000000,-26.690643,157.80925,
1989500000,-26.178961,150.62511,
1994000000,-25.891191,141.27711,
1998500000,-26.074078,131.34338,
2003000000,-26.472834,122.36427,
2007500000,-27.076479,114.00681,
2012000000,-27.697807,108.89995,
2016500000,-28.145611,106.49024,
2021000000,-28.106293,103.07317,
2025500000,-27.827063,99.14373,
2030000000,-27.346928,93.189903,
2034500000,-27.021582,84.506973,
2039000000,-26.996532,73.549812,
2043500000,-27.384651,65.203934,
2048000000,-27.719503,58.171917,
2052500000,-28.483892,50.780319,
2057000000,-28.895433,47.681293,
2061500000,-28.937773,43.541843,
2066000000,-28.857714,39.168751,
2070500000,-28.641758,34.218414,
2075000000,-28.28706,27.317987,
2079500000,-28.097446,17.420208,
2084000000,-28.302383,6.8299346,
2088500000,-28.789701,-1.2660147,
2093000000,-29.360449,-7.7475877,
2097500000,-30.016685,-14.471945,
2102000000,-30.339954,-17.461281,
2106500000,-30.541817,-20.921446,
2111000000,-30.213076,-23.209976,
2115500000,-29.67934,-29.624344,
2120000000,-29.435242,-38.486565,
2124500000,-29.523241,-49.2425,
2129000000,-29.739935,-57.832367,
2133500000,-30.554895,-65.988319,
2138000000,-31.289017,-71.198944,
2142500000,-31.826336,-74.070305,
2147000000,-31.883741,-76.548691,
2151500000,-31.613886,-79.171806,
2156000000,-31.158428,-83.516411,
2160500000,-30.997261,-92.33239,
2165000000,-31.139467,-103.53188,
2169500000,-31.681326,-111.01619,
2174000000,-32.319935,-116.56062,
2178500000,-33.014,-120.95137,
2183000000,-33.546993,-122.38722,
2187500000,-33.691326,-122.32437,
2192000000,-33.318287,-126.59958,
2196500000,-32.598324,-132.39539,
2201000000,-32.280842,-139.99423,
2205500000,-32.427296,-151.21333,
2210000000,-32.707451,-159.57816,
2214500000,-33.457966,-166.07483,
2219000000,-33.941223,-170.60474,
2223500000,-34.561321,-174.23441,
2228000000,-34.781166,-176.11694,
2232500000,-34.666496,-179.99693,
2237000000,-33.988846,174.3206,
2241500000,-33.703716,167.54144,
2246000000,-33.721123,156.92912,
2250500000,-34.067131,148.77786,
2255000000,-34.526077,141.02988,
2259500000,-35.050896,136.74936,
2264000000,-35.607895,133.25343,
2268500000,-35.85062,129.77444,
2273000000,-35.534901,125.87185,
2277500000,-35.144291,120.22809,
2282000000,-35.415146,113.19756,
2286500000,-35.372978,104.07169,
2291000000,-35.887268,95.438484,
2295500000,-36.610741,90.334885,
2300000000,-36.951569,87.142128,
2304500000,-37.199543,81.181129,
2309000000,-37.50478,82.540787,
2313500000,-37.394783,75.725517,
2318000000,-36.664207,69.499107,
2322500000,-37.260601,63.721287,
2327000000,-37.634113,56.186287,
2331500000,-37.809326,51.895039,
2336000000,-38.585987,46.287655,
2340500000,-38.519241,45.249481,
2345000000,-38.479465,40.727757,
2349500000,-38.260181,37.482727,
2354000000,-37.744446,30.875816,
2358500000,-37.743835,25.44331,
2363000000,-37.745052,14.251373,
2367500000,-37.999969,9.6493464,
2372000000,-38.563309,1.2916739,
2376500000,-39.303684,-3.1343753,
2381000000,-39.41629,-9.5428038,
2385500000,-39.836262,-14.587264,
2390000000,-40.177872,-20.283522,
2394500000,-39.732616,-24.961624,
2399000000,-40.599796,-27.90196,
2403500000,-40.720844,-39.982849,
2408000000,-41.360466,-42.072857,
2412500000,-42.35511,-43.20195,
2417000000,-42.377724,-42.867889,
2421500000,-41.783829,-46.09951,
2426000000,-41.615089,-50.971272,
2430500000,-41.850216,-58.448669,
2435000000,-42.155136,-67.555466,
2439500000,-41.960175,-71.770508,
2444000000,-42.120487,-75.463821,
2448500000,-43.688507,-77.850235,
2453000000,-43.061852,-79.13504,
2457500000,-44.165123,-84.064293,
2462000000,-43.894783,-86.344345,
2466500000,-43.250092,-89.559242,
2471000000,-43.629997,-92.67379,
2475500000,-43.087669,-103.35989,
2480000000,-43.469379,-112.87045,
2484500000,-44.181606,-116.47344,
2489000000,-44.699265,-123.30969,
2493500000,-45.030449,-128.50635,
2498000000,-45.853741,-126.98885,
2502500000,-44.464668,-123.98848,
2507000000,-45.847221,-125.78796,
2511500000,-44.432785,-134.92133,
2516000000,-44.85585,-143.15634,
2520500000,-45.646999,-150.13297,
2525000000,-46.097828,-158.6508,
2529500000,-47.088001,-149.53156,
2534000000,-47.295502,-154.42725,
2538500000,-46.005299,-149.76158,
2543000000,-45.660786,-152.00009,
2547500000,-44.776699,-155.52115,
2552000000,-43.467426,-156.84364,
2556500000,-44.872917,-166.18726,
2561000000,-44.618763,-174.06422,
2565500000,-44.458191,-172.21445,
2570000000,-43.882092,-178.2132,
2574500000,-43.791138,177.13251,
2579000000,-43.625069,167.42761,
2583500000,-43.826992,167.28957,
2588000000,-44.212616,162.6662,
2592500000,-43.859043,156.27199,
2597000000,-42.980587,148.61752,
2601500000,-43.101665,151.5376,
2606000000,-42.480614,140.59892,
2610500000,-42.52446,140.0274,
2615000000,-42.232098,129.79463,
2619500000,-42.267155,124.49513,
2624000000,-42.176807,119.04982,
2628500000,-41.470028,114.14568,
2633000000,-41.431728,107.95422,
2637500000,-41.345787,103.64756,
2642000000,-41.275326,94.792084,
2646500000,-41.337814,90.618057,
2651000000,-40.511402,81.214851,
2655500000,-40.681934,72.609619,
2660000000,-41.137184,65.04393,
2664500000,-40.199997,57.302044,
2669000000,-40.149612,52.861237,
2673500000,-40.384327,42.928402,
2678000000,-41.724331,39.910713,
2682500000,-41.877819,32.056255,
2687000000,-42.08168,25.887236,
2691500000,-41.731705,25.62145,
2696000000,-41.616917,17.239693,
2700500000,-41.326668,16.894833,
2705000000,-41.138988,11.743345,
2709500000,-41.276077,5.7969475,
2714000000,-41.444515,-1.0574151,
2718500000,-41.092583,-10.373722,
2723000000,-41.077656,-16.374283,
2727500000,-41.359589,-19.410011,
2732000000,-41.277401,-24.440704,
2736500000,-40.415829,-32.249401,
2741000000,-40.377544,-42.213085,
2745500000,-40.304066,-51.431122,
2750000000,-40.937275,-58.744198,
2754500000,-40.513924,-67.473,
2759000000,-41.80888,-74.002014,
2763500000,-41.645088,-78.951691,
2768000000,-42.400921,-83.821304,
2772500000,-41.987801,-87.142235,
2777000000,-41.756687,-94.409882,
2781500000,-42.412991,-103.01308,
2786000000,-42.178165,-114.11227,
2790500000,-42.674984,-113.60329,
2795000000,-42.77063,-124.58479,
2799500000,-42.618252,-131.5166,
2804000000,-42.442188,-134.14735,
2808500000,-43.977657,-140.51572,
2813000000,-43.056091,-140.00867,
2817500000,-43.492355,-148.81752,
2822000000,-43.944115,-156.10403,
2826500000,-42.976772,-159.24527,
2831000000,-43.274521,-171.04727,
2835500000,-42.982685,-175.90086,
2840000000,-43.198341,174.18002,
2844500000,-44.071186,166.90288,
2849000000,-43.873764,161.8714,
2853500000,-44.953354,158.24701,
2858000000,-43.795975,152.03793,
2862500000,-43.239365,142.99402,
2867000000,-43.632076,130.72568,
2871500000,-43.662884,117.51503,
2876000000,-43.975315,109.57077,
2880500000,-45.688198,103.20204,
2885000000,-45.748329,86.403542,
2889500000,-45.749477,86.010834,
2894000000,-47.188824,79.569931,
2898500000,-48.257458,71.109322,
2903000000,-47.31028,64.269241,
2907500000,-47.516506,56.403694,
2912000000,-49.247601,52.95499,
2916500000,-49.423782,54.906731,
2921000000,-49.838985,48.16666,
2925500000,-52.556393,38.93475,
2930000000,-51.940655,28.885509,
2934500000,-51.404949,34.362011,
2939000000,-52.073181,33.006115,
2943500000,-51.97805,8.033618,
2948000000,-50.828342,10.851586,
2952500000,-51.682213,0.38471407,
2957000000,-52.293949,-19.977327,
2961500000,-53.935642,-14.158222,
2966000000,-51.535461,-25.925362,
2970500000,-54.900333,-63.611309,
2975000000,-54.386463,-35.10775,
2979500000,-57.204994,-71.416985,
2984000000,-55.667278,-64.850555,
2988500000,-53.97086,-94.090874,
2993000000,-57.295635,-90.991928,
2997500000,-55.15786,-107.19131,
3002000000,-56.37571,-156.74829,
3006500000,-62.134209,175.91188,
3011000000,-57.843983,-162.19803,
3015500000,-57.455997,173.31235,
3020000000,-56.554283,139.87105,
3024500000,-60.488647,133.09077,
3029000000,-55.839058,101.28542,
3033500000,-57.917213,117.34027,
3038000000,-54.744541,113.90775,
3042500000,-57.807922,98.70784,
3047000000,-58.383278,93.118492,
3051500000,-62.250584,59.372082,
3056000000,-59.888123,61.996937,
3060500000,-54.690624,32.192566,
3065000000,-59.865471,46.788826,
3069500000,-63.1633,3.6959841,
3074000000,-61.914764,29.974375,
3078500000,-56.251354,-1.8661672,
3083000000,-61.890133,16.334009,
3087500000,-57.898411,1.3483323,
3092000000,-55.933659,19.6756,
3096500000,-54.593937,-7.0050735,
3101000000,-58.918484,0.38118881,
3105500000,-55.57486,5.7312922,
