!CSV A.01.01,,,
!Agilent Technologies,E8361C,US49010233,A.09.22.11
!Agilent E8361C: A.09.22.11,,,
!Date: Wednesday, September 28, 2022 12:23:13,
!Source: Standard,,,
,,,
BEGIN CH1_DATA,,,
Freq(Hz),S22(DB),S22(DEG),
500000000,-1.2516043,-158.38249,
504500000,-1.2599602,-159.53596,
509000000,-1.2536881,-160.71588,
513500000,-1.2510142,-161.75464,
518000000,-1.2513753,-162.98018,
522500000,-1.2670356,-164.32391,
527000000,-1.2971617,-165.64235,
531500000,-1.2998637,-167.05653,
536000000,-1.3369938,-168.46571,
540500000,-1.3505211,-169.98256,
545000000,-1.352326,-171.22954,
549500000,-1.3656763,-172.72389,
554000000,-1.3698698,-174.03136,
558500000,-1.3647033,-175.42844,
563000000,-1.3748924,-176.71941,
567500000,-1.3851614,-178.11526,
572000000,-1.4065028,-179.43047,
576500000,-1.4358647,179.22552,
581000000,-1.4535472,177.94368,
585500000,-1.4669639,176.69748,
590000000,-1.4743967,175.40326,
594500000,-1.5150622,174.245,
599000000,-1.5289443,173.10332,
603500000,-1.5442988,172.0412,
608000000,-1.5624171,171.0289,
612500000,-1.5902394,169.66788,
617000000,-1.6376297,168.63849,
621500000,-1.6594956,167.30736,
626000000,-1.7058301,166.28513,
630500000,-1.7354851,164.96069,
635000000,-1.8073095,163.62274,
639500000,-1.8497276,162.20767,
644000000,-1.8900783,160.7946,
648500000,-1.9339583,159.54999,
653000000,-1.969878,158.05772,
657500000,-1.9748017,156.72635,
662000000,-1.987553,155.47534,
666500000,-2.0215487,154.37355,
671000000,-2.0317318,153.02521,
675500000,-2.0398064,151.76208,
680000000,-2.0195708,150.78587,
684500000,-2.053978,149.24768,
689000000,-2.0907528,147.9521,
693500000,-2.1433699,146.51625,
698000000,-2.1820316,145.26802,
702500000,-2.205044,144.18546,
707000000,-2.2478173,143.1243,
711500000,-2.2407181,141.94028,
716000000,-2.2713602,140.89632,
720500000,-2.2941844,139.95499,
725000000,-2.3534074,138.77255,
729500000,-2.4422147,137.58727,
734000000,-2.4940512,136.1295,
738500000,-2.5633302,134.49855,
743000000,-2.6449862,132.96661,
747500000,-2.7281866,131.45667,
752000000,-2.7734475,130.08133,
756500000,-2.8428829,128.43439,
761000000,-2.8904517,126.64814,
765500000,-2.9695253,125.29318,
770000000,-3.0261767,123.88877,
774500000,-3.0284958,122.25115,
779000000,-3.2300725,120.78407,
783500000,-3.3141658,120.30078,
788000000,-3.3010921,118.64753,
792500000,-3.4638662,116.69417,
797000000,-3.6605132,116.09589,
801500000,-3.6992748,115.37903,
806000000,-3.7206428,113.88982,
810500000,-3.9154999,112.85088,
815000000,-3.9898643,112.97288,
819500000,-3.9266281,112.35917,
824000000,-4.0254583,110.78191,
828500000,-4.228291,110.43073,
833000000,-4.2341871,110.26717,
837500000,-4.2689815,108.72656,
842000000,-4.4482851,106.72128,
846500000,-4.6103539,106.05386,
851000000,-4.6357064,104.90804,
855500000,-4.7458901,102.88902,
860000000,-4.9755058,101.40809,
864500000,-5.0493202,100.86207,
869000000,-4.9933748,99.405159,
873500000,-5.0663228,97.578842,
878000000,-5.1642118,96.898048,
882500000,-5.1617765,96.192589,
887000000,-5.138391,94.28508,
891500000,-5.323494,93.029976,
896000000,-5.4208808,92.749184,
900500000,-5.4081626,91.334763,
905000000,-5.432384,89.477135,
909500000,-5.6285686,88.085648,
914000000,-5.6721268,87.236923,
918500000,-5.6165986,85.694664,
923000000,-5.7780876,84.221489,
927500000,-5.9681878,83.863953,
932000000,-6.0021672,83.206757,
936500000,-6.167418,81.393394,
941000000,-6.3976526,80.697037,
945500000,-6.5873675,80.147118,
950000000,-6.6903625,78.564583,
954500000,-6.886476,75.977272,
959000000,-7.1220832,74.101509,
963500000,-7.2841845,72.390732,
968000000,-7.3781786,69.805771,
972500000,-7.5536146,67.606911,
977000000,-7.7640791,66.099106,
981500000,-7.9403667,64.658012,
986000000,-8.0948639,63.355389,
990500000,-8.3714628,62.260571,
995000000,-8.5992031,61.615791,
999500000,-8.724081,60.174595,
1004000000,-8.9528017,58.401909,
1008500000,-9.200326,56.708252,
1013000000,-9.3870792,55.64109,
1017500000,-9.6182442,53.924419,
1022000000,-9.8930779,52.937954,
1026500000,-10.129579,52.433426,
1031000000,-10.459461,51.916168,
1035500000,-10.768683,51.409126,
1040000000,-11.19134,51.307278,
1044500000,-11.71121,51.23217,
1049000000,-12.228125,51.10006,
1053500000,-12.835679,50.83382,
1058000000,-13.459291,50.385433,
1062500000,-14.016944,49.797119,
1067000000,-14.50845,49.266575,
1071500000,-14.883872,48.517338,
1076000000,-15.099908,47.647793,
1080500000,-15.303886,46.611092,
1085000000,-15.547447,45.881554,
1089500000,-15.829798,45.576752,
1094000000,-16.183081,45.967579,
1098500000,-16.553762,46.683926,
1103000000,-17.035622,47.312237,
1107500000,-17.604795,48.155426,
1112000000,-18.312914,50.017834,
1116500000,-18.867136,52.295834,
1121000000,-19.23365,55.282791,
1125500000,-19.375679,59.386631,
1130000000,-19.239174,62.706745,
1134500000,-19.170481,66.604012,
1139000000,-18.992147,70.890839,
1143500000,-18.775143,75.220734,
1148000000,-18.616106,79.480133,
1152500000,-18.638025,84.464508,
1157000000,-18.711432,90.429253,
1161500000,-18.813725,95.031433,
1166000000,-19.045597,100.27964,
1170500000,-18.967604,105.56456,
1175000000,-18.717165,107.45888,
1179500000,-18.401314,108.13802,
1184000000,-18.148376,107.70757,
1188500000,-17.684315,106.15469,
1193000000,-17.173882,103.67106,
1197500000,-16.810282,101.51615,
1202000000,-16.380798,100.57966,
1206500000,-15.963655,99.00798,
1211000000,-15.75357,97.01992,
1215500000,-15.60763,96.450157,
1220000000,-15.371349,95.25161,
1224500000,-15.146806,92.781029,
1229000000,-15.053502,89.699303,
1233500000,-14.999424,88.078163,
1238000000,-14.656754,85.585655,
1242500000,-14.480893,83.536163,
1247000000,-14.358722,82.755302,
1251500000,-14.125624,82.929924,
1256000000,-13.823933,82.520546,
1260500000,-13.773087,81.891884,
1265000000,-13.970448,82.31218,
1269500000,-14.172788,83.134369,
1274000000,-14.479286,82.55658,
1278500000,-14.922647,82.763008,
1283000000,-15.378649,83.430305,
1287500000,-15.659433,82.786789,
1292000000,-15.982985,81.026581,
1296500000,-16.270252,79.983109,
1301000000,-16.259058,78.733978,
1305500000,-16.198294,76.9758,
1310000000,-16.295731,75.752998,
1314500000,-16.193775,76.046249,
1319000000,-16.080824,75.60466,
1323500000,-16.102522,74.96843,
1328000000,-16.268492,74.462486,
1332500000,-16.325342,74.062958,
1337000000,-16.293142,72.423828,
1341500000,-16.309654,70.558228,
1346000000,-16.323132,69.252281,
1350500000,-15.929307,68.001129,
1355000000,-15.716364,67.165199,
1359500000,-15.566137,66.921631,
1364000000,-15.348857,68.514046,
1368500000,-15.243964,69.591469,
1373000000,-15.246843,70.956734,
1377500000,-15.523039,73.397194,
1382000000,-15.707625,74.735886,
1386500000,-16.051104,75.035446,
1391000000,-16.606623,74.723412,
1395500000,-17.101679,73.932953,
1400000000,-17.486668,71.948036,
1404500000,-17.815046,69.412735,
1409000000,-18.206465,67.515869,
1413500000,-18.316484,66.370941,
1418000000,-18.315786,65.493042,
1422500000,-18.529184,65.041985,
1427000000,-18.683537,65.999741,
1431500000,-18.744442,66.123802,
1436000000,-18.881008,65.569374,
1440500000,-19.213854,64.150604,
1445000000,-19.394104,63.644047,
1449500000,-19.422827,61.826435,
1454000000,-19.470428,59.904968,
1458500000,-19.355328,59.660801,
1463000000,-19.124287,59.741425,
1467500000,-18.79631,62.035774,
1472000000,-18.518618,65.147011,
1476500000,-18.034584,69.384552,
1481000000,-17.562374,72.310646,
1485500000,-17.447523,75.043976,
1490000000,-17.383694,77.797806,
1494500000,-17.47089,79.606361,
1499000000,-17.759455,79.909752,
1503500000,-18.229975,79.754288,
1508000000,-18.845182,78.726555,
1512500000,-19.480316,76.655327,
1517000000,-19.869638,74.371735,
1521500000,-19.964714,71.851067,
1526000000,-20.187149,68.846992,
1530500000,-20.304295,67.946312,
1535000000,-20.318447,67.919113,
1539500000,-20.466312,66.468086,
1544000000,-20.962593,65.744469,
1548500000,-21.489323,65.562653,
1553000000,-22.0746,64.046646,
1557500000,-22.516027,62.396496,
1562000000,-22.847685,58.805832,
1566500000,-22.938704,56.990681,
1571000000,-22.609642,55.980598,
1575500000,-22.27319,57.251465,
1580000000,-21.784187,61.868427,
1584500000,-21.077463,67.130737,
1589000000,-20.47234,72.624565,
1593500000,-20.209961,78.740906,
1598000000,-19.960655,85.444054,
1602500000,-19.81995,90.419121,
1607000000,-20.056601,95.637276,
1611500000,-20.297298,99.777557,
1616000000,-20.468838,102.25028,
1620500000,-20.95998,102.49796,
1625000000,-21.420225,102.61369,
1629500000,-21.661783,102.87267,
1634000000,-21.523689,101.7047,
1638500000,-21.628494,101.4073,
1643000000,-21.480354,102.84019,
1647500000,-21.263838,103.32299,
1652000000,-21.23168,104.21925,
1656500000,-21.386856,105.53452,
1661000000,-21.470028,106.95341,
1665500000,-21.645082,106.4877,
1670000000,-22.021568,104.45065,
1674500000,-22.0784,101.58478,
1679000000,-21.766266,97.970383,
1683500000,-21.099981,94.336403,
1688000000,-20.482426,91.873581,
1692500000,-19.585812,91.625519,
1697000000,-18.645414,92.462685,
1701500000,-17.975937,94.21418,
1706000000,-17.544579,96.924347,
1710500000,-16.946449,100.47272,
1715000000,-16.661087,102.89101,
1719500000,-16.597387,105.20094,
1724000000,-16.691908,107.77919,
1728500000,-16.70945,109.35652,
1733000000,-16.88011,108.48779,
1737500000,-17.119183,108.0985,
1742000000,-17.109827,107.59529,
1746500000,-16.982975,105.15799,
1751000000,-16.981888,103.63176,
1755500000,-16.931623,103.82288,
1760000000,-16.756376,104.06256,
1764500000,-16.766556,103.45366,
1769000000,-16.979731,103.80461,
1773500000,-17.065859,104.27715,
1778000000,-17.098137,102.07234,
1782500000,-17.409124,98.720169,
1787000000,-17.487871,95.60218,
1791500000,-17.075123,91.485703,
1796000000,-16.539911,86.965683,
1800500000,-16.095491,84.204597,
1805000000,-15.463032,83.856552,
1809500000,-14.793093,84.177483,
1814000000,-14.334226,84.482529,
1818500000,-14.11994,86.327316,
1823000000,-13.894514,88.367004,
1827500000,-13.76973,89.007324,
1832000000,-13.980722,89.141029,
1836500000,-14.165184,89.881134,
1841000000,-14.245403,89.424248,
1845500000,-14.385724,87.392288,
1850000000,-14.652097,85.798965,
1854500000,-14.600909,85.374146,
1859000000,-14.572604,83.793671,
1863500000,-14.678154,82.254128,
1868000000,-14.850273,82.384933,
1872500000,-14.870845,82.235069,
1877000000,-15.041843,80.605881,
1881500000,-15.475821,78.975212,
1886000000,-15.802917,78.247856,
1890500000,-15.923538,74.993736,
1895000000,-16.040083,70.270203,
1899500000,-16.02655,67.25721,
1904000000,-15.667311,64.868675,
1908500000,-15.151157,62.01482,
1913000000,-14.742441,61.058983,
1917500000,-14.320931,61.923546,
1922000000,-13.947146,63.224754,
1926500000,-13.649488,64.417381,
1931000000,-13.543502,65.855141,
1935500000,-13.529178,68.362076,
1940000000,-13.526817,69.284035,
1944500000,-13.759929,68.973701,
1949000000,-14.000741,69.276001,
1953500000,-14.09437,68.343269,
1958000000,-14.214891,66.213509,
1962500000,-14.333652,64.397903,
1967000000,-14.346953,63.475941,
1971500000,-14.197772,61.881557,
1976000000,-14.25841,60.306023,
1980500000,-14.477152,60.031475,
1985000000,-14.611108,58.804214,
1989500000,-14.895525,56.133598,
1994000000,-15.202734,52.151108,
1998500000,-15.48357,47.584354,
2003000000,-15.512309,42.371536,
2007500000,-15.365282,36.259441,
2012000000,-15.093151,31.431612,
2016500000,-14.730724,28.341805,
2021000000,-14.327278,26.565294,
2025500000,-14.14092,26.144381,
2030000000,-14.051183,26.419245,
2034500000,-14.204897,28.006403,
2039000000,-14.480597,29.123278,
2043500000,-14.943323,30.124331,
2048000000,-15.504591,30.657509,
2052500000,-16.114012,30.304949,
2057000000,-16.81744,29.400246,
2061500000,-17.552629,27.046703,
2066000000,-18.162094,25.467318,
2070500000,-18.778706,23.605406,
2075000000,-19.444475,22.719477,
2079500000,-20.281342,22.92267,
2084000000,-21.111727,24.080074,
2088500000,-22.083811,25.398542,
2093000000,-23.280836,26.384239,
2097500000,-24.721447,25.898088,
2102000000,-25.848289,21.575531,
2106500000,-27.009504,14.124714,
2111000000,-27.307646,3.6935785,
2115500000,-27.09726,-5.0746646,
2120000000,-26.0133,-7.5164685,
2124500000,-24.984976,-5.7658997,
2129000000,-23.994785,-1.1070038,
2133500000,-23.356398,6.4486041,
2138000000,-22.572952,13.714731,
2142500000,-22.099007,21.552832,
2147000000,-21.984283,30.965021,
2151500000,-21.893343,38.279072,
2156000000,-22.250099,46.931763,
2160500000,-22.455982,53.156265,
2165000000,-22.768894,59.230751,
2169500000,-23.326452,62.822296,
2174000000,-23.776342,66.172684,
2178500000,-24.062702,68.47139,
2183000000,-24.260212,70.547012,
2187500000,-24.380848,73.38031,
2192000000,-24.278845,78.338539,
2196500000,-24.192368,82.603683,
2201000000,-24.469776,88.235153,
2205500000,-24.85133,95.037796,
2210000000,-25.785484,102.24361,
2214500000,-26.985342,108.28765,
2219000000,-28.99353,115.35394,
2223500000,-31.663816,116.355,
2228000000,-34.988487,105.32626,
2232500000,-37.173153,68.36438,
2237000000,-33.790489,42.843147,
2241500000,-29.91498,36.914074,
2246000000,-27.229601,38.479851,
2250500000,-25.431721,43.555653,
2255000000,-24.268127,50.215008,
2259500000,-23.446066,57.041962,
2264000000,-23.073986,63.250633,
2268500000,-22.958853,69.988411,
2273000000,-22.856268,77.380417,
2277500000,-22.770454,82.396317,
2282000000,-22.943712,86.977798,
2286500000,-22.991598,90.283836,
2291000000,-22.751532,93.976341,
2295500000,-22.564812,97.420517,
2300000000,-22.315744,102.80291,
2304500000,-21.788662,107.60266,
2309000000,-21.455402,112.44003,
2313500000,-21.447571,118.34441,
2318000000,-21.220396,125.7865,
2322500000,-21.232939,131.81422,
2327000000,-21.566174,137.03397,
2331500000,-22.227125,144.44777,
2336000000,-22.81366,148.258,
2340500000,-23.937946,147.82155,
2345000000,-25.053616,146.3804,
2349500000,-26.042789,139.752,
2354000000,-26.013288,124.37842,
2358500000,-25.447334,111.98945,
2363000000,-23.934687,104.79472,
2367500000,-22.24732,102.30929,
2372000000,-20.953621,101.6423,
2376500000,-19.969753,102.45622,
2381000000,-19.102249,104.44607,
2385500000,-18.494072,106.34712,
2390000000,-18.021067,106.75063,
2394500000,-17.801373,108.53332,
2399000000,-17.374645,109.86072,
2403500000,-16.978888,109.56898,
2408000000,-16.653809,110.30483,
2412500000,-16.219492,111.94621,
2417000000,-15.635941,113.4343,
2421500000,-15.315805,115.28786,
2426000000,-15.175611,117.90977,
2430500000,-15.012181,121.70313,
2435000000,-15.105655,123.44555,
2439500000,-15.486314,125.36362,
2444000000,-15.919263,126.62365,
2448500000,-16.235558,126.25339,
2453000000,-16.958748,122.9492,
2457500000,-17.522354,118.64149,
2462000000,-17.603983,113.40477,
2466500000,-17.321602,106.21749,
2471000000,-16.964321,100.13332,
2475500000,-16.429502,97.465027,
2480000000,-15.713337,95.423004,
2484500000,-15.165071,93.19323,
2489000000,-14.768731,92.412148,
2493500000,-14.371716,93.123596,
2498000000,-13.907971,92.722237,
2502500000,-13.656417,91.970428,
2507000000,-13.492345,92.311104,
2511500000,-13.148048,92.734871,
2516000000,-12.78618,92.248169,
2520500000,-12.6166,92.294159,
2525000000,-12.474037,93.729599,
2529500000,-12.202582,94.954231,
2534000000,-12.178928,95.74485,
2538500000,-12.328476,97.374344,
2543000000,-12.442973,99.742531,
2547500000,-12.670199,99.921921,
2552000000,-13.233216,99.427254,
2556500000,-13.787896,99.47422,
2561000000,-14.221157,97.039513,
2565500000,-14.784732,92.356155,
2570000000,-15.137268,88.162239,
2574500000,-15.177808,83.911972,
2579000000,-14.867761,78.800095,
2583500000,-14.511775,74.528229,
2588000000,-14.202187,72.581749,
2592500000,-13.684315,72.200905,
2597000000,-13.315145,70.937805,
2601500000,-13.137073,70.665741,
2606000000,-12.98144,71.576637,
2610500000,-12.717619,72.22049,
2615000000,-12.527171,71.932564,
2619500000,-12.430642,72.51268,
2624000000,-12.185164,73.707947,
2628500000,-11.869985,74.391815,
2633000000,-11.768041,75.348373,
2637500000,-11.667774,77.995644,
2642000000,-11.451761,80.193024,
2646500000,-11.535459,81.221291,
2651000000,-11.785084,83.68531,
2655500000,-12.01838,85.94574,
2660000000,-12.31183,85.735268,
2664500000,-12.987873,85.223991,
2669000000,-13.499071,84.38636,
2673500000,-13.835099,81.364128,
2678000000,-14.189262,76.534714,
2682500000,-14.384495,72.425163,
2687000000,-14.275091,68.515961,
2691500000,-13.855086,64.61937,
2696000000,-13.626874,61.448795,
2700500000,-13.356879,59.863548,
2705000000,-12.867146,59.269493,
2709500000,-12.557812,57.931164,
2714000000,-12.366167,57.177559,
2718500000,-12.133622,57.880676,
2723000000,-11.798682,57.866791,
2727500000,-11.506615,57.805195,
2732000000,-11.45664,58.981697,
2736500000,-11.183247,60.716095,
2741000000,-10.895082,61.330864,
2745500000,-10.877221,62.934402,
2750000000,-10.854817,65.351677,
2754500000,-10.763636,67.327263,
2759000000,-10.9462,68.072258,
2763500000,-11.329122,70.122299,
2768000000,-11.607613,71.644249,
2772500000,-11.977576,71.296654,
2777000000,-12.594777,69.587074,
2781500000,-13.159137,68.699135,
2786000000,-13.479346,65.36512,
2790500000,-13.780598,60.377029,
2795000000,-14.001293,55.847698,
2799500000,-13.851555,52.111454,
2804000000,-13.531747,48.502151,
2808500000,-13.263545,45.309238,
2813000000,-12.974735,44.191135,
2817500000,-12.597577,43.22633,
2822000000,-12.267341,42.320957,
2826500000,-12.038976,42.059799,
2831000000,-11.785897,42.28672,
2835500000,-11.464939,42.932369,
2840000000,-11.222719,42.996986,
2844500000,-11.129449,44.308781,
2849000000,-10.807734,46.162903,
2853500000,-10.646978,47.597431,
2858000000,-10.723003,49.490261,
2862500000,-10.788151,52.579983,
2867000000,-10.829969,55.045918,
2871500000,-11.146303,56.393066,
2876000000,-11.676579,58.157253,
2880500000,-12.075565,59.587616,
2885000000,-12.614031,58.825634,
2889500000,-13.3247,57.011307,
2894000000,-13.923956,55.616104,
2898500000,-14.301112,52.541138,
2903000000,-14.610964,47.431046,
2907500000,-14.754681,42.960815,
2912000000,-14.639709,39.481728,
2916500000,-14.34807,35.780113,
2921000000,-14.107903,32.724171,
2925500000,-13.835612,31.141359,
2930000000,-13.381451,30.156406,
2934500000,-12.969149,29.234056,
2939000000,-12.641068,29.571243,
2943500000,-12.257642,30.298235,
2948000000,-11.845737,31.498781,
2952500000,-11.594898,32.600368,
2957000000,-11.419672,35.2206,
2961500000,-11.164766,37.935173,
2966000000,-11.064736,39.883984,
2970500000,-11.097578,42.325733,
2975000000,-11.203832,46.101402,
2979500000,-11.241396,48.594036,
2984000000,-11.622101,50.633736,
2988500000,-12.149623,53.002834,
2993000000,-12.587249,54.921242,
2997500000,-13.17189,54.509586,
3002000000,-14.016125,54.308548,
3006500000,-14.59326,52.545422,
3011000000,-15.158042,48.555614,
3015500000,-15.668175,44.022842,
3020000000,-15.807523,39.692265,
3024500000,-15.732607,34.723885,
3029000000,-15.570326,30.209599,
3033500000,-15.214417,27.614851,
3038000000,-14.717267,25.637188,
3042500000,-14.137738,23.944839,
3047000000,-13.724854,23.400406,
3051500000,-13.189752,23.986876,
3056000000,-12.593372,25.13534,
3060500000,-12.175231,25.5972,
3065000000,-11.788508,28.224234,
3069500000,-11.355475,31.166416,
3074000000,-11.062099,33.773796,
3078500000,-10.945893,36.907364,
3083000000,-10.890984,40.718086,
3087500000,-10.810335,43.679676,
3092000000,-10.995584,45.980049,
3096500000,-11.357341,49.249035,
3101000000,-11.624806,51.595078,
3105500000,-12.016254,52.412075,
3110000000,-12.657631,52.618755,
3114500000,-13.21352,52.910015,
3119000000,-13.669239,51.651508,
3123500000,-14.271305,48.218891,
3128000000,-14.896149,44.8325,
3132500000,-15.206841,40.530342,
3137000000,-15.293536,34.490032,
3141500000,-15.22053,28.246937,
