!CSV A.01.01
!Agilent Technologies,E8361C,US49010233,A.09.22.11
!Agilent E8361C: A.09.22.11
!Date: Wednesday, September 28, 2022 12:19:36
!Source: Standard

BEGIN CH1_DATA
Freq(Hz),S12(DB),S12(DEG)
500000000,-68.674164,-132.82884
504500000,-69.545952,162.15514
509000000,-75.289909,25.499683
513500000,-71.52475,-101.70874
518000000,-68.388809,-102.20947
522500000,-77.862404,133.40732
527000000,-67.008224,-18.611183
531500000,-93.247368,73.031075
536000000,-77.826698,10.689935
540500000,-64.495026,-134.71977
545000000,-67.574944,63.15369
549500000,-83.793564,-110.98086
554000000,-68.550316,-155.16063
558500000,-70.385124,-96.81356
563000000,-73.091843,50.516579
567500000,-68.213318,-144.55511
572000000,-68.699356,155.40704
576500000,-70.67028,154.65529
581000000,-70.295105,-1.0679059
585500000,-77.587463,-113.40359
590000000,-65.04705,-65.213631
594500000,-75.156448,-114.93279
599000000,-72.189079,-59.875099
603500000,-72.728996,-172.65532
608000000,-74.444611,30.810516
612500000,-66.831879,-112.93777
617000000,-67.902428,125.92372
621500000,-72.17366,-0.88574201
626000000,-70.162628,-155.05939
630500000,-77.146538,-86.798515
635000000,-68.677002,107.25766
639500000,-66.900574,-114.06776
644000000,-75.710861,-114.17086
648500000,-68.475731,-89.055115
653000000,-67.634232,130.32611
657500000,-72.44426,-128.28964
662000000,-80.401878,34.792137
666500000,-81.593643,175.63039
671000000,-64.201385,6.1819925
675500000,-70.589737,-103.37199
680000000,-72.690903,177.29979
684500000,-89.903519,61.18409
689000000,-80.236977,123.58875
693500000,-74.672218,128.69394
698000000,-83.131683,67.530762
702500000,-77.182213,-72.950722
707000000,-72.950424,-78.25885
711500000,-64.467133,110.23801
716000000,-78.646255,-35.250252
720500000,-78.982437,59.246578
725000000,-69.910179,-175.12471
729500000,-68.591896,117.99123
734000000,-65.638756,131.05998
738500000,-68.405853,-144.54839
743000000,-78.975975,153.2222
747500000,-65.347466,93.558708
752000000,-71.743088,95.475792
756500000,-67.931747,101.62747
761000000,-76.015297,-115.51161
765500000,-77.482903,-100.51971
770000000,-70.163147,75.999313
774500000,-67.878075,76.074936
779000000,-66.649796,43.511337
783500000,-69.211731,83.592026
788000000,-68.620857,28.64629
792500000,-64.983078,45.985363
797000000,-81.537872,74.291008
801500000,-61.011654,-34.348129
806000000,-64.37748,90.87706
810500000,-71.812454,52.58334
815000000,-66.052475,-24.344353
819500000,-69.977005,-99.179573
824000000,-70.601051,1.7433437
828500000,-72.13414,43.947723
833000000,-62.521229,12.824082
837500000,-74.789368,15.542635
842000000,-65.826706,-28.734079
846500000,-68.431427,-34.670212
851000000,-60.426296,-85.257889
855500000,-77.992325,-125.43929
860000000,-68.916489,55.531277
864500000,-66.054436,15.282352
869000000,-84.449966,-134.08295
873500000,-77.047028,-141.37619
878000000,-72.511459,-103.19206
882500000,-70.526192,-50.699917
887000000,-73.159393,-67.68187
891500000,-72.810776,-91.898033
896000000,-68.602036,-61.727139
900500000,-62.599609,-36.613953
905000000,-65.831085,-73.232483
909500000,-61.95578,-25.594986
914000000,-65.955734,-31.39073
918500000,-60.667053,-48.027431
923000000,-56.334366,-80.068871
927500000,-54.749947,-112.3373
932000000,-58.306248,-103.01071
936500000,-56.586342,-149.44241
941000000,-62.917267,-129.99522
945500000,-69.068298,-89.556206
950000000,-58.921886,-135.18933
954500000,-65.778236,-108.50954
959000000,-59.29744,-146.99355
963500000,-58.059288,-161.06789
968000000,-54.600029,-146.85837
972500000,-62.055992,-154.48627
977000000,-55.743393,-127.17814
981500000,-55.525852,-146.15916
986000000,-55.32579,-168.53137
990500000,-55.108578,177.90823
995000000,-54.045082,-169.14444
999500000,-55.945072,-164.39168
1004000000,-54.507942,-160.03886
1008500000,-52.062881,-159.99091
1013000000,-50.480057,-159.12263
1017500000,-49.837952,-175.97586
1022000000,-49.450153,-174.48271
1026500000,-46.043289,177.38942
1031000000,-45.320198,166.48897
1035500000,-44.206169,166.60321
1040000000,-42.649323,155.21382
1044500000,-40.681965,147.20309
1049000000,-39.608677,133.75467
1053500000,-38.56641,122.86552
1058000000,-37.451233,112.17205
1062500000,-36.867409,97.742104
1067000000,-36.674648,88.923927
1071500000,-35.772923,80.825195
1076000000,-34.915787,69.277679
1080500000,-33.918388,57.551674
1085000000,-33.657116,46.571186
1089500000,-32.805805,38.688515
1094000000,-31.681692,25.803307
1098500000,-30.908426,9.7443275
1103000000,-30.952362,-7.793591
1107500000,-31.126415,-24.480722
1112000000,-31.910091,-38.771717
1116500000,-32.857449,-50.612225
1121000000,-33.4142,-60.912891
1125500000,-34.110279,-67.270485
1130000000,-34.446877,-73.292816
1134500000,-34.872135,-81.639328
1139000000,-35.497692,-79.242668
1143500000,-34.542507,-88.081108
1148000000,-34.27475,-99.775116
1152500000,-34.618546,-107.78817
1157000000,-35.464481,-115.47034
1161500000,-35.730515,-119.4628
1166000000,-36.288086,-122.60333
1170500000,-36.059055,-124.19936
1175000000,-35.209068,-125.29034
1179500000,-34.061577,-132.24483
1184000000,-33.358902,-142.65631
1188500000,-33.636456,-154.66011
1193000000,-34.105595,-163.92032
1197500000,-34.372185,-169.299
1202000000,-34.883709,-173.47946
1206500000,-34.909115,-172.8454
1211000000,-34.37566,-174.30554
1215500000,-33.051254,-178.94836
1220000000,-32.094608,172.12802
1224500000,-31.304831,157.9641
1229000000,-31.471775,142.06839
1233500000,-32.728245,130.26279
1238000000,-33.759819,123.4182
1242500000,-34.784302,120.15169
1247000000,-35.342041,119.56984
1251500000,-35.45755,122.89429
1256000000,-34.919773,123.08051
1260500000,-33.527176,123.50175
1265000000,-32.036945,117.39622
1269500000,-30.709133,105.10777
1274000000,-30.285524,90.206886
1278500000,-30.512136,77.912613
1283000000,-31.090937,67.949959
1287500000,-31.557505,60.540733
1292000000,-32.286289,56.451096
1296500000,-32.643887,54.87011
1301000000,-32.303867,55.389538
1305500000,-31.244864,54.214169
1310000000,-29.906887,47.830532
1314500000,-29.174208,35.876827
1319000000,-29.051184,23.807566
1323500000,-29.218315,11.381456
1328000000,-30.117628,3.2090499
1332500000,-30.792252,-2.862896
1337000000,-30.994274,-4.1139159
1341500000,-31.141428,-5.1021361
1346000000,-30.685484,-6.2590122
1350500000,-29.738386,-9.2345591
1355000000,-28.652065,-18.970148
1359500000,-28.437983,-31.311695
1364000000,-28.610352,-41.222576
1368500000,-28.908806,-50.590702
1373000000,-29.637701,-57.953506
1377500000,-30.203863,-62.706806
1382000000,-30.729712,-63.263645
1386500000,-30.699242,-63.496609
1391000000,-29.944035,-64.208778
1395500000,-28.860661,-68.30455
1400000000,-27.863455,-77.034592
1404500000,-27.657143,-87.742973
1409000000,-27.534027,-97.233345
1413500000,-27.734102,-104.21502
1418000000,-27.993011,-110.27061
1422500000,-28.00033,-113.55194
1427000000,-27.7388,-117.39812
1431500000,-27.279325,-121.79701
1436000000,-27.043673,-126.0368
1440500000,-26.383755,-128.31122
1445000000,-25.044827,-135.39104
1449500000,-24.361107,-146.81325
1454000000,-24.492043,-157.81111
1458500000,-24.691919,-165.99867
1463000000,-24.832615,-172.0592
1467500000,-24.901873,-176.54605
1472000000,-24.655151,-179.15826
1476500000,-23.654539,176.20326
1481000000,-22.629902,166.95711
1485500000,-22.071871,154.48193
1490000000,-22.038664,141.80772
1494500000,-22.297392,129.73146
1499000000,-22.867838,119.32413
1503500000,-23.607948,111.95895
1508000000,-24.309391,106.80909
1512500000,-24.680548,104.63912
1517000000,-24.559471,102.08299
1521500000,-24.10384,98.567146
1526000000,-23.3643,92.759712
1530500000,-22.67462,83.910873
1535000000,-22.355082,73.967171
1539500000,-22.442888,62.883068
1544000000,-22.769146,53.32373
1548500000,-23.241203,47.429096
1553000000,-23.526669,41.761524
1557500000,-23.492329,37.237568
1562000000,-23.42927,33.100643
1566500000,-22.992882,27.470325
1571000000,-22.542841,19.547783
1575500000,-22.500643,10.32993
1580000000,-22.603703,2.6296806
1584500000,-22.726986,-5.0519028
1589000000,-23.031691,-12.65708
1593500000,-23.36401,-17.776186
1598000000,-23.303419,-22.826185
1602500000,-23.205952,-28.930752
1607000000,-23.135252,-35.210167
1611500000,-23.09289,-42.159946
1616000000,-23.099787,-50.134453
1620500000,-23.353043,-56.907265
1625000000,-23.478237,-63.755901
1629500000,-23.509302,-69.792992
1634000000,-23.64249,-76.741302
1638500000,-23.908226,-83.399452
1643000000,-24.108692,-89.066536
1647500000,-24.321285,-94.113518
1652000000,-24.420528,-98.972916
1656500000,-24.399092,-102.74424
1661000000,-24.12615,-107.47546
1665500000,-23.713413,-113.91238
1670000000,-23.552801,-121.62968
1674500000,-23.65871,-129.78616
1679000000,-23.854267,-137.2771
1683500000,-24.034161,-143.80823
1688000000,-24.588305,-149.24429
1692500000,-24.784548,-152.80482
1697000000,-24.697458,-156.03496
1701500000,-24.548136,-160.2326
1706000000,-24.27424,-164.59395
1710500000,-23.899576,-170.89641
1715000000,-23.818155,-178.72896
1719500000,-23.842999,173.5331
1724000000,-23.964088,166.81815
1728500000,-24.092346,160.12482
1733000000,-24.325987,154.37123
1737500000,-24.484823,150.61395
1742000000,-24.199156,145.57239
1746500000,-23.956495,139.33801
1751000000,-23.719019,132.6001
1755500000,-23.578527,123.87866
1760000000,-23.725367,114.70983
1764500000,-24.161787,106.77562
1769000000,-24.678892,100.39815
1773500000,-25.122263,96.124535
1778000000,-25.35408,93.624229
1782500000,-25.240671,91.577698
1787000000,-24.722479,87.779373
1791500000,-23.996407,80.859444
1796000000,-23.596695,71.452896
1800500000,-23.781052,61.689552
1805000000,-23.981255,53.412029
1809500000,-24.626539,45.652946
1814000000,-25.295704,41.02108
1818500000,-25.67271,39.04277
1823000000,-25.811186,37.061218
1827500000,-25.481647,34.632511
1832000000,-25.018106,30.091583
1836500000,-24.327915,22.858353
1841000000,-24.252455,12.841851
1845500000,-24.519655,3.8212984
1850000000,-24.95587,-3.52616
1854500000,-25.413303,-9.9876633
1859000000,-26.105469,-14.46821
1863500000,-26.353743,-17.282534
1868000000,-26.336275,-19.49815
1872500000,-26.099932,-23.108618
1877000000,-25.848988,-28.442608
1881500000,-25.689461,-36.360531
1886000000,-25.911682,-43.912758
1890500000,-26.484131,-49.989899
1895000000,-26.991743,-53.823372
1899500000,-27.257057,-57.021553
1904000000,-27.315401,-57.927593
1908500000,-26.810802,-59.583557
1913000000,-26.234198,-63.938534
1917500000,-25.95063,-70.836319
1922000000,-25.680241,-78.308151
1926500000,-25.693991,-86.71048
1931000000,-25.989777,-92.866089
1935500000,-26.422728,-97.901566
1940000000,-26.531506,-100.44976
1944500000,-26.499819,-103.20906
1949000000,-26.151894,-106.40605
1953500000,-25.558918,-111.225
1958000000,-25.174902,-118.04818
1962500000,-24.90634,-125.78828
1967000000,-24.969234,-133.39432
1971500000,-25.282568,-139.3997
1976000000,-25.338505,-142.76787
1980500000,-25.167027,-146.79283
1985000000,-24.883741,-150.55791
1989500000,-24.172659,-156.4319
1994000000,-23.724747,-165.6826
1998500000,-23.823048,-175.72055
2003000000,-24.21924,176.6666
2007500000,-24.584728,170.0686
2012000000,-25.110987,166.04619
2016500000,-25.351877,163.10762
2021000000,-25.177408,161.52084
2025500000,-24.806614,158.05705
2030000000,-24.296354,152.83517
2034500000,-23.722349,146.10814
2039000000,-23.512768,136.37863
2043500000,-23.830462,127.33654
2048000000,-24.259762,121.27077
2052500000,-24.68063,116.01018
2057000000,-25.03484,112.73312
2061500000,-25.008411,110.5379
2066000000,-24.587013,107.62683
2070500000,-24.025517,103.09624
2075000000,-23.464916,95.734879
2079500000,-23.118353,87.187279
2084000000,-23.096708,76.923767
2088500000,-23.329817,68.769958
2093000000,-23.844551,61.942448
2097500000,-24.219513,56.569595
2102000000,-24.540268,52.947109
2106500000,-24.413939,50.000481
2111000000,-24.071175,47.018867
2115500000,-23.390875,41.07481
2120000000,-22.747379,31.604753
2124500000,-22.810555,21.525408
2129000000,-23.045965,13.16131
2133500000,-23.437563,5.0786815
2138000000,-23.999321,-0.56495881
2142500000,-24.429899,-2.9441903
2147000000,-24.257931,-4.702796
2151500000,-23.950134,-8.5735779
2156000000,-23.3734,-13.740027
2160500000,-22.958769,-21.943308
2165000000,-22.982473,-31.425131
2169500000,-23.369968,-40.136131
2174000000,-23.980282,-45.823666
2178500000,-24.418463,-49.63995
2183000000,-24.757729,-51.962147
2187500000,-24.685081,-52.766376
2192000000,-24.106436,-55.503525
2196500000,-23.315752,-61.433674
2201000000,-22.911507,-70.031258
2205500000,-22.779579,-79.609894
2210000000,-22.999144,-88.537376
2214500000,-23.518991,-95.698433
2219000000,-23.986696,-100.61206
2223500000,-24.232124,-103.57243
2228000000,-23.993742,-106.71069
2232500000,-23.525618,-111.48622
2237000000,-23.089624,-117.78465
2241500000,-22.639938,-126.04523
2246000000,-22.470751,-137.0567
2250500000,-22.85232,-147.01723
2255000000,-23.374105,-154.86961
2259500000,-23.778852,-159.24316
2264000000,-24.07029,-164.3237
2268500000,-24.122478,-167.75276
2273000000,-23.749763,-171.8701
2277500000,-23.344275,-178.72296
2282000000,-23.132168,172.34464
2286500000,-23.096697,163.94786
2291000000,-23.393217,154.90149
2295500000,-23.873032,147.61282
2300000000,-24.297382,142.01627
2304500000,-24.457729,138.36702
2309000000,-24.396814,133.80069
2313500000,-24.285057,128.25699
2318000000,-24.031181,120.4055
2322500000,-23.916491,112.18024
2327000000,-24.238766,103.16491
2331500000,-24.822155,94.719673
2336000000,-25.385603,89.878883
2340500000,-25.816782,85.729301
2345000000,-25.764982,80.91983
2349500000,-25.974415,76.397621
2354000000,-25.864174,70.294296
2358500000,-25.930618,61.776482
2363000000,-26.427588,53.52232
2367500000,-26.937038,47.665062
2372000000,-27.422152,42.848824
2376500000,-27.87866,37.635998
2381000000,-28.266586,33.624615
2385500000,-28.444464,29.540186
2390000000,-28.539551,24.076469
2394500000,-28.81296,19.076693
2399000000,-29.108566,12.024792
2403500000,-29.516941,6.87358
2408000000,-30.173986,3.7099283
2412500000,-30.519922,2.4292397
2417000000,-30.60219,0.46918112
2421500000,-30.509768,-1.9201299
2426000000,-30.189524,-5.719542
2430500000,-29.927448,-13.265243
2435000000,-29.950531,-20.256067
2439500000,-30.495754,-26.587336
2444000000,-31.036781,-31.861818
2448500000,-31.284277,-33.945183
2453000000,-31.492479,-36.006908
2457500000,-31.506062,-40.393684
2462000000,-31.535944,-43.344494
2466500000,-31.334368,-48.190666
2471000000,-31.111385,-52.701088
2475500000,-31.115313,-58.859783
2480000000,-31.280052,-65.231262
2484500000,-31.604502,-72.393677
2489000000,-31.994055,-76.657227
2493500000,-32.576054,-80.501961
2498000000,-32.846066,-82.988228
2502500000,-32.91605,-83.069626
2507000000,-32.62661,-84.545464
2511500000,-32.131298,-90.715584
2516000000,-32.113468,-94.518188
2520500000,-32.063244,-99.566994
2525000000,-32.328423,-104.47928
2529500000,-32.392029,-107.80486
2534000000,-32.602493,-110.00266
2538500000,-32.086746,-112.38158
2543000000,-31.605911,-116.27048
2547500000,-31.33423,-122.00957
2552000000,-30.865797,-128.08366
2556500000,-30.797758,-134.78336
2561000000,-30.904844,-139.62798
2565500000,-30.79706,-144.74266
2570000000,-30.674294,-150.35762
2574500000,-30.710194,-155.02701
2579000000,-30.690815,-161.40988
2583500000,-30.447315,-165.93321
2588000000,-30.378349,-173.68387
2592500000,-30.414665,-179.12262
2597000000,-30.615046,176.54066
2601500000,-30.576048,171.82236
2606000000,-30.699144,167.30475
2610500000,-30.666416,164.16759
2615000000,-30.259851,158.45461
2619500000,-30.431145,152.80667
2624000000,-29.90472,145.78172
2628500000,-29.929245,139.45473
2633000000,-29.886351,132.93935
2637500000,-30.261429,127.1222
2642000000,-30.20022,122.69109
2646500000,-30.293222,116.83404
2651000000,-30.306211,112.48099
2655500000,-30.317503,108.24806
2660000000,-30.08267,102.78207
2664500000,-29.920441,97.883774
2669000000,-29.747356,89.285645
2673500000,-30.061319,82.34124
2678000000,-30.188206,77.301643
2682500000,-30.380186,71.82431
2687000000,-30.693594,68.123726
2691500000,-30.686329,63.365128
2696000000,-30.683229,58.687611
2700500000,-30.428989,53.183853
2705000000,-30.559021,47.680592
2709500000,-30.705076,41.266121
2714000000,-31.14435,36.512409
2718500000,-31.169083,32.938057
2723000000,-31.163465,29.735912
2727500000,-30.877087,27.351551
2732000000,-30.645834,24.418018
2736500000,-30.149057,19.805191
2741000000,-29.700104,12.03468
2745500000,-29.564142,5.3815727
2750000000,-29.66053,-2.2934318
2754500000,-29.677647,-7.8844872
2759000000,-29.657381,-12.663061
2763500000,-29.849316,-17.118114
2768000000,-29.560343,-21.199028
2772500000,-29.462309,-26.274305
2777000000,-29.203711,-33.180187
2781500000,-28.884432,-39.666725
2786000000,-28.664114,-47.065205
2790500000,-28.806166,-53.449303
2795000000,-29.07239,-60.328377
2799500000,-29.289818,-65.571335
2804000000,-29.539955,-70.875633
2808500000,-29.517296,-74.957779
2813000000,-29.561073,-80.067902
2817500000,-29.255468,-84.809898
2822000000,-29.111603,-91.254494
2826500000,-29.074394,-97.143715
2831000000,-28.975132,-105.5597
2835500000,-29.21796,-111.95083
2840000000,-29.536562,-118.55939
2844500000,-29.770821,-121.54501
2849000000,-29.699968,-127.49671
2853500000,-29.414333,-132.89555
2858000000,-29.456879,-135.9462
2862500000,-29.121647,-143.6151
2867000000,-29.239925,-151.81157
2871500000,-29.278191,-158.60355
2876000000,-29.440548,-166.15453
2880500000,-29.781038,-171.84259
2885000000,-30.097485,-177.17345
2889500000,-30.203234,178.79105
2894000000,-30.156652,174.19637
2898500000,-30.252819,169.17451
2903000000,-30.045511,163.88487
2907500000,-29.936354,156.13921
2912000000,-30.137135,150.52875
2916500000,-30.347898,144.26192
2921000000,-30.334984,138.80461
2925500000,-30.53359,134.05751
2930000000,-30.831919,130.4576
2934500000,-30.867092,126.5811
2939000000,-30.546362,120.93216
2943500000,-30.360209,115.71746
2948000000,-30.230225,109.23371
2952500000,-30.173372,102.8513
2957000000,-30.315088,96.591827
2961500000,-30.531479,89.804359
2966000000,-30.52973,83.877022
2970500000,-30.884211,79.314362
2975000000,-30.87944,73.910179
2979500000,-31.086735,70.745903
2984000000,-31.057549,66.087021
2988500000,-30.775063,60.819031
2993000000,-30.758501,54.389751
2997500000,-30.86013,46.651409
3002000000,-30.67013,40.067497
3006500000,-30.723566,33.879036
3011000000,-31.125887,28.621929
3015500000,-31.146996,21.620228
3020000000,-31.050667,16.664639
3024500000,-31.505611,9.9704905
3029000000,-31.312183,4.9268508
3033500000,-31.437265,-2.575228
3038000000,-31.994974,-8.8551502
3042500000,-32.12981,-13.15763
3047000000,-32.398396,-19.661768
3051500000,-32.438793,-20.908777
3056000000,-32.491787,-25.876358
3060500000,-31.987318,-28.40378
3065000000,-31.906128,-34.624172
3069500000,-31.619171,-40.835064
3074000000,-31.728199,-48.385197
3078500000,-31.807636,-56.370872
3083000000,-32.020668,-61.920872
3087500000,-32.097858,-69.072647
3092000000,-32.087143,-72.392235
3096500000,-31.958099,-79.146202
3101000000,-31.742016,-84.189285
3105500000,-31.940517,-92.047127
3110000000,-31.747292,-99.392365
3114500000,-32.066784,-108.89723
3119000000,-32.543427,-114.49396
3123500000,-32.891296,-121.03881
3128000000,-33.14513,-127.49398
3132500000,-33.462627,-133.68199
3137000000,-33.836082,-138.27145
3141500000,-33.956272,-145.827
3146000000,-34.637451,-154.30969
3150500000,-35.400196,-161.99721
3155000000,-35.80455,-164.40512
3159500000,-35.813816,-170.54286
3164000000,-36.752804,-173.32214
3168500000,-36.833958,-179.10963
3173000000,-37.445824,176.82324
3177500000,-38.098263,173.99171
3182000000,-39.087151,169.35751
