!CSV A.01.01
!Agilent Technologies,E8361C,US49010233,A.09.22.11
!Agilent E8361C: A.09.22.11
!Date: Wednesday, September 28, 2022 12:18:57
!Source: Standard

BEGIN CH1_DATA
Freq(Hz),S11(DB),S11(DEG)
500000000,-0.26206529,165.73457
504500000,-0.27055582,164.30849
509000000,-0.26051736,162.78732
513500000,-0.28303236,161.12202
518000000,-0.26627445,159.58492
522500000,-0.2766459,157.97525
527000000,-0.28568849,156.54622
531500000,-0.26817682,155.20488
536000000,-0.26396316,153.41003
540500000,-0.28857562,151.87227
545000000,-0.31167024,150.29507
549500000,-0.29938146,148.79855
554000000,-0.27453199,147.31445
558500000,-0.31149215,145.71236
563000000,-0.30345842,144.20287
567500000,-0.29320624,142.64207
572000000,-0.30275294,141.01416
576500000,-0.30933747,139.45494
581000000,-0.31166038,137.97823
585500000,-0.2985512,136.28685
590000000,-0.31191218,134.8476
594500000,-0.31696129,133.31242
599000000,-0.29869711,131.69104
603500000,-0.31692913,130.28934
608000000,-0.3542996,128.80919
612500000,-0.30021518,127.33733
617000000,-0.34370649,125.97337
621500000,-0.31431624,124.45654
626000000,-0.33450955,123.05145
630500000,-0.33542961,121.64108
635000000,-0.32415888,120.14636
639500000,-0.33770764,118.65423
644000000,-0.32516003,117.23523
648500000,-0.34194657,115.6604
653000000,-0.36780083,114.38115
657500000,-0.35356438,112.80878
662000000,-0.3352474,111.29689
666500000,-0.36801156,109.70655
671000000,-0.34758359,108.10268
675500000,-0.34706903,106.47433
680000000,-0.37862048,105.34132
684500000,-0.37613881,103.91827
689000000,-0.35544163,102.10397
693500000,-0.39708197,100.75328
698000000,-0.33652008,99.100586
702500000,-0.37542254,98.000008
707000000,-0.34280798,96.415833
711500000,-0.34802341,94.855713
716000000,-0.35133371,93.541801
720500000,-0.36065102,92.104256
725000000,-0.37701628,90.810219
729500000,-0.37854668,89.33252
734000000,-0.36662748,88.034401
738500000,-0.3925533,86.393913
743000000,-0.37803745,85.168877
747500000,-0.38980559,83.850388
752000000,-0.39867461,82.336792
756500000,-0.36534691,80.834869
761000000,-0.40263402,79.427887
765500000,-0.38712585,77.829765
770000000,-0.39379013,76.566635
774500000,-0.45616779,74.976036
779000000,-0.38200921,73.337395
783500000,-0.41663742,71.81974
788000000,-0.47237176,70.344231
792500000,-0.35829657,68.958252
797000000,-0.38331988,67.198608
801500000,-0.46697706,66.020294
806000000,-0.37422836,64.795448
810500000,-0.39544076,62.91124
815000000,-0.47380334,61.8759
819500000,-0.39291018,60.592331
824000000,-0.42318159,58.702164
828500000,-0.45657235,57.727066
833000000,-0.40660211,56.64986
837500000,-0.40966496,54.455345
842000000,-0.46297532,53.588024
846500000,-0.40780091,52.201069
851000000,-0.43532643,50.269356
855500000,-0.47712317,49.057499
860000000,-0.40304694,47.574028
864500000,-0.4304502,45.558907
869000000,-0.50217301,44.436005
873500000,-0.43660042,43.152489
878000000,-0.42903531,41.008465
882500000,-0.49370769,39.639729
887000000,-0.44078088,38.230141
891500000,-0.47325286,36.301056
896000000,-0.50463551,35.275131
900500000,-0.39613351,33.685532
905000000,-0.45680064,31.651667
909500000,-0.5007441,30.682224
914000000,-0.42481756,29.488918
918500000,-0.46050787,27.436066
923000000,-0.51871479,25.953638
927500000,-0.4519752,25.066174
932000000,-0.47457945,22.793001
936500000,-0.55742788,21.536943
941000000,-0.49241248,20.11755
945500000,-0.48380065,18.112759
950000000,-0.57092792,16.750076
954500000,-0.51493382,15.237451
959000000,-0.48021293,12.994416
963500000,-0.59366608,11.466192
968000000,-0.55376983,9.8003645
972500000,-0.52347803,7.6030688
977000000,-0.61396986,5.7672191
981500000,-0.54900253,4.2060466
986000000,-0.54724115,1.8393772
990500000,-0.62450635,-0.21749979
995000000,-0.59975982,-1.9035884
999500000,-0.61953747,-4.2910056
1004000000,-0.69281149,-6.4549508
1008500000,-0.66937637,-8.3435078
1013000000,-0.71348381,-10.998408
1017500000,-0.81737864,-13.160097
1022000000,-0.81898749,-15.327756
1026500000,-0.88672614,-18.189608
1031000000,-1.041411,-20.854984
1035500000,-1.1179794,-23.432123
1040000000,-1.2668473,-27.012497
1044500000,-1.4557391,-30.487322
1049000000,-1.6986326,-34.246109
1053500000,-2.000772,-38.707031
1058000000,-2.5079346,-43.375446
1062500000,-3.1544826,-48.389294
1067000000,-4.0112209,-53.679974
1071500000,-5.2766862,-58.767113
1076000000,-7.1744576,-62.827843
1080500000,-9.8860178,-61.666363
1085000000,-12.957705,-48.365635
1089500000,-13.992751,-18.649931
1094000000,-11.695613,2.2063251
1098500000,-9.1830864,8.4853792
1103000000,-7.323451,7.6752529
1107500000,-6.1644354,4.7581239
1112000000,-5.3607426,2.3129387
1116500000,-4.6560688,-0.38622552
1121000000,-4.187767,-3.457864
1125500000,-3.8306832,-5.393796
1130000000,-3.3871753,-7.4083023
1134500000,-2.8994241,-9.8509989
1139000000,-2.5537562,-14.923665
1143500000,-2.6219804,-17.400669
1148000000,-2.5186453,-19.619871
1152500000,-2.4724615,-21.77861
1157000000,-2.3425014,-23.813036
1161500000,-2.2640707,-26.543486
1166000000,-2.2587645,-28.661779
1170500000,-2.1595318,-30.638521
1175000000,-2.1250994,-33.167641
1179500000,-2.124979,-35.645428
1184000000,-2.1042697,-37.541752
1188500000,-2.0716436,-39.73632
1193000000,-2.1009712,-41.963318
1197500000,-2.133316,-43.899792
1202000000,-2.1630182,-46.063087
1206500000,-2.2146599,-47.989357
1211000000,-2.2865865,-49.413311
1215500000,-2.289757,-50.808846
1220000000,-2.2724638,-52.362625
1224500000,-2.2937107,-53.998917
1229000000,-2.2777429,-55.513912
1233500000,-2.2796998,-57.139889
1238000000,-2.3107502,-58.808346
1242500000,-2.2767389,-60.200863
1247000000,-2.3325417,-62.242859
1251500000,-2.3591118,-64.25251
1256000000,-2.4421065,-65.798637
1260500000,-2.5222363,-67.493744
1265000000,-2.6154609,-69.206833
1269500000,-2.6599219,-70.566582
1274000000,-2.674376,-72.438324
1278500000,-2.7445562,-74.409752
1283000000,-2.784941,-75.765747
1287500000,-2.8529282,-77.556099
1292000000,-2.9084806,-79.514572
1296500000,-3.0134475,-80.848259
1301000000,-3.0623972,-82.262131
1305500000,-3.1292021,-83.707146
1310000000,-3.154958,-84.730324
1314500000,-3.1462941,-86.203339
1319000000,-3.1860826,-87.749557
1323500000,-3.1742315,-88.568069
1328000000,-3.1643677,-89.959183
1332500000,-3.1927814,-91.54129
1337000000,-3.2423048,-92.983017
1341500000,-3.2024353,-94.563393
1346000000,-3.2442169,-96.482925
1350500000,-3.2796481,-97.44207
1355000000,-3.2644258,-99.226608
1359500000,-3.3429134,-101.2683
1364000000,-3.3467321,-102.92106
1368500000,-3.3416467,-104.87948
1373000000,-3.4189,-107.359
1377500000,-3.4135668,-109.08857
1382000000,-3.413065,-111.36225
1386500000,-3.5031536,-114.28759
1391000000,-3.6037591,-116.20224
1395500000,-3.582268,-118.67751
1400000000,-3.7262418,-121.59197
1404500000,-3.877156,-123.7029
1409000000,-3.9775422,-126.22904
1413500000,-4.2002225,-129.29128
1418000000,-4.5241694,-131.39522
1422500000,-4.7726755,-133.9856
1427000000,-5.3490453,-136.50343
1431500000,-6.2104478,-136.17532
1436000000,-6.6770244,-130.55405
1440500000,-6.0234976,-126.32603
1445000000,-5.3285489,-128.33694
1449500000,-5.0767484,-132.19749
1454000000,-5.1837673,-136.02722
1458500000,-5.3446441,-137.9698
1463000000,-5.4174385,-140.30139
1467500000,-5.5881257,-142.6573
1472000000,-5.7173586,-144.3007
1476500000,-5.7480302,-146.33121
1481000000,-5.8943338,-148.97363
1485500000,-6.0951924,-150.87051
1490000000,-6.0915651,-152.84299
1494500000,-6.2658348,-155.54767
1499000000,-6.3903069,-157.45348
1503500000,-6.5126925,-159.51337
1508000000,-6.6566768,-161.6996
1512500000,-6.7831903,-163.61552
1517000000,-6.9659557,-166.09215
1521500000,-7.1332626,-167.43999
1526000000,-7.2268419,-169.70895
1530500000,-7.4392214,-172.59177
1535000000,-7.6998482,-174.62268
1539500000,-7.916482,-177.11899
1544000000,-8.2763968,179.95418
1548500000,-8.6868105,177.63611
1553000000,-9.0107107,175.58121
1557500000,-9.411026,172.59113
1562000000,-9.9309397,170.13431
1566500000,-10.389716,167.54245
1571000000,-11.001887,164.44034
1575500000,-11.71319,161.84877
1580000000,-12.452842,159.9803
1584500000,-13.235972,158.46086
1589000000,-14.075911,157.25694
1593500000,-14.921445,157.50496
1598000000,-15.842268,157.90506
1602500000,-16.760807,159.70027
1607000000,-17.614321,162.65968
1611500000,-18.5166,165.89653
1616000000,-19.575125,171.71719
1620500000,-20.332598,-178.92938
1625000000,-20.611748,-167.02943
1629500000,-20.038074,-155.31398
1634000000,-19.016634,-147.5098
1638500000,-17.930046,-142.18309
1643000000,-16.867683,-139.15521
1647500000,-15.973818,-138.01074
1652000000,-15.24505,-136.96686
1656500000,-14.408482,-137.33551
1661000000,-13.706719,-138.90234
1665500000,-13.232332,-140.37589
1670000000,-12.695406,-141.91393
1674500000,-12.319457,-145.05605
1679000000,-12.064889,-147.55598
1683500000,-11.725582,-149.80397
1688000000,-11.43612,-153.13826
1692500000,-11.319849,-155.88759
1697000000,-11.119746,-158.20406
1701500000,-10.884526,-161.73581
1706000000,-10.839773,-164.46498
1710500000,-10.658448,-166.36456
1715000000,-10.483592,-169.3383
1719500000,-10.442763,-171.70625
1724000000,-10.260572,-173.11229
1728500000,-10.049271,-175.66682
1733000000,-10.033419,-177.78009
1737500000,-9.8704901,-179.50783
1742000000,-9.7153435,177.95761
1746500000,-9.7190762,175.93701
1751000000,-9.5909996,174.2702
1755500000,-9.4766092,171.50455
1760000000,-9.4424076,169.1971
1764500000,-9.4227076,166.75049
1769000000,-9.3658228,163.87599
1773500000,-9.4166193,160.97098
1778000000,-9.424243,158.69469
1782500000,-9.4018717,155.27701
1787000000,-9.4853296,152.09573
1791500000,-9.5211697,149.30351
1796000000,-9.520977,146.23196
1800500000,-9.5407267,143.14792
1805000000,-9.5404329,140.30209
1809500000,-9.4905148,137.33034
1814000000,-9.50881,134.12112
1818500000,-9.4926596,131.31708
1823000000,-9.4322996,128.39404
1827500000,-9.4425354,125.39725
1832000000,-9.4548845,122.30849
1836500000,-9.4624929,119.37884
1841000000,-9.4956455,116.4381
1845500000,-9.5018167,112.91283
1850000000,-9.5876961,109.98863
1854500000,-9.5912132,106.61288
1859000000,-9.6893492,102.94907
1863500000,-9.7498074,99.208015
1868000000,-9.7946749,95.0625
1872500000,-9.81744,90.426018
1877000000,-9.9643211,85.754341
1881500000,-9.9925871,81.189445
1886000000,-9.9986305,75.667023
1890500000,-10.089291,70.270027
1895000000,-10.098775,65.191559
1899500000,-10.07553,59.080978
1904000000,-10.217032,53.352299
1908500000,-10.247063,48.523712
1913000000,-10.241606,42.46722
1917500000,-10.352171,36.630032
1922000000,-10.45167,31.143419
1926500000,-10.510394,25.015871
1931000000,-10.657762,18.396332
1935500000,-10.878437,12.725898
1940000000,-10.914783,6.3793511
1944500000,-11.087669,-0.97302783
1949000000,-11.312551,-7.5638447
1953500000,-11.387966,-14.424687
1958000000,-11.483838,-22.38855
1962500000,-11.643851,-29.576614
1967000000,-11.692172,-36.630959
1971500000,-11.711141,-43.744102
1976000000,-11.75026,-50.641434
1980500000,-11.695979,-56.618382
1985000000,-11.653307,-63.043194
1989500000,-11.606009,-69.082397
1994000000,-11.610798,-74.607254
1998500000,-11.634377,-79.479897
2003000000,-11.609271,-84.041924
2007500000,-11.558007,-88.926544
2012000000,-11.520421,-92.88456
2016500000,-11.448097,-97.454155
2021000000,-11.413304,-102.38003
2025500000,-11.39623,-106.20692
2030000000,-11.325661,-110.46757
2034500000,-11.157266,-115.28936
2039000000,-11.118041,-119.46758
2043500000,-10.91331,-123.41524
2048000000,-10.720804,-128.15744
2052500000,-10.56749,-131.94504
2057000000,-10.290991,-135.73305
2061500000,-10.07015,-140.03088
2066000000,-9.9228687,-143.58665
2070500000,-9.6252728,-146.70795
2075000000,-9.3809528,-150.88542
2079500000,-9.267375,-154.27307
2084000000,-9.027977,-157.07715
2088500000,-8.8657494,-160.68729
2093000000,-8.7770348,-163.97218
2097500000,-8.5904789,-166.89478
2102000000,-8.4079771,-170.60278
2106500000,-8.3872795,-174.0614
2111000000,-8.2230806,-177.26776
2115500000,-8.0795784,178.7175
2120000000,-8.0523453,175.11688
2124500000,-7.8942747,171.87338
2129000000,-7.7510281,167.64955
2133500000,-7.6824751,163.59074
2138000000,-7.5587115,160.01617
2142500000,-7.3429213,156.00241
2147000000,-7.2533588,151.82362
2151500000,-7.138607,148.47527
2156000000,-6.9564667,144.64781
2160500000,-6.9196296,140.60641
2165000000,-6.7760983,136.96465
2169500000,-6.6847692,133.28795
2174000000,-6.6788955,129.4207
2178500000,-6.6338925,125.8623
2183000000,-6.6047726,122.03712
2187500000,-6.6227031,118.17773
2192000000,-6.7108498,114.28266
2196500000,-6.7564683,110.41792
2201000000,-6.8332114,106.29498
2205500000,-6.9115825,102.26839
2210000000,-7.034317,98.118996
2214500000,-7.1820235,94.137161
2219000000,-7.2661767,89.645882
2223500000,-7.4152136,85.597298
2228000000,-7.4738541,81.710129
2232500000,-7.559361,77.308876
2237000000,-7.6710558,73.34671
2241500000,-7.8061099,69.140945
2246000000,-7.8888936,65.341835
2250500000,-7.9976215,61.342072
2255000000,-8.1593513,57.440212
2259500000,-8.3439255,53.90255
2264000000,-8.51091,49.768627
2268500000,-8.7170153,45.679146
2273000000,-8.9822054,42.000992
2277500000,-9.2138433,38.021046
2282000000,-9.5061054,33.704838
2286500000,-9.793499,29.111458
2291000000,-10.131782,24.425669
2295500000,-10.480618,19.355036
2300000000,-10.83079,13.848171
2304500000,-11.218617,8.5257025
2309000000,-11.608667,3.0637207
2313500000,-12.026514,-2.8294389
2318000000,-12.427105,-8.118763
2322500000,-12.722175,-13.822598
2327000000,-13.000631,-20.088083
2331500000,-13.407102,-26.372137
2336000000,-13.700475,-32.978035
2340500000,-14.082963,-40.376801
2345000000,-14.758792,-48.215782
2349500000,-15.356743,-54.98727
2354000000,-16.002567,-63.435062
2358500000,-16.813066,-72.191208
2363000000,-17.648539,-81.092049
2367500000,-18.346645,-90.828186
2372000000,-18.841843,-103.2967
2376500000,-19.36668,-115.5097
2381000000,-19.39019,-128.86749
2385500000,-19.390139,-142.91753
2390000000,-19.022795,-156.15129
2394500000,-18.687744,-167.49643
2399000000,-18.194649,-177.45694
2403500000,-17.79328,173.29559
2408000000,-17.432753,165.03081
2412500000,-17.064384,157.87766
2417000000,-16.553844,151.14259
2421500000,-16.176376,143.59695
2426000000,-15.953218,136.58585
2430500000,-15.623607,129.24925
2435000000,-15.348486,121.53358
2439500000,-15.169505,113.59199
2444000000,-14.976148,107.60149
2448500000,-14.625832,99.399239
2453000000,-14.544641,92.298004
2457500000,-14.402466,86.554253
2462000000,-14.167539,80.598511
2466500000,-13.977695,75.227844
2471000000,-13.768734,70.81723
2475500000,-13.5081,65.345963
2480000000,-13.443705,60.100094
2484500000,-13.374518,55.291634
2489000000,-13.372623,50.649651
2493500000,-13.428843,45.525848
2498000000,-13.575906,41.134583
2502500000,-13.6758,36.329613
2507000000,-13.820747,30.89171
2511500000,-14.061549,25.523384
2516000000,-14.372128,20.14183
2520500000,-14.637836,14.463542
2525000000,-14.865581,8.9572077
2529500000,-14.955275,2.7845984
2534000000,-15.140298,-3.3307297
2538500000,-15.229278,-10.052491
2543000000,-15.455987,-17.105518
2547500000,-15.684652,-23.146418
2552000000,-15.876899,-29.325571
2556500000,-16.169582,-35.070572
2561000000,-16.59057,-40.028961
2565500000,-16.858976,-45.644783
2570000000,-17.301037,-51.479824
2574500000,-17.849579,-56.201405
2579000000,-18.239372,-61.279469
2583500000,-18.792583,-68.141037
2588000000,-19.408092,-74.608818
2592500000,-19.899736,-81.98555
2597000000,-20.441349,-91.89238
2601500000,-20.955954,-101.44975
2606000000,-21.252169,-111.40173
2610500000,-21.279289,-121.79089
2615000000,-21.41618,-131.81065
2619500000,-21.190929,-141.17149
2624000000,-20.911386,-149.23036
2628500000,-20.547533,-157.3605
2633000000,-20.26692,-164.16397
2637500000,-19.963793,-170.75302
2642000000,-19.518974,-177.44286
2646500000,-19.301485,174.74004
2651000000,-19.201393,167.97672
2655500000,-19.115328,161.19553
2660000000,-19.094761,154.33025
2664500000,-19.093019,149.10869
2669000000,-18.724365,142.71391
2673500000,-18.270927,135.51912
2678000000,-17.917156,128.70355
2682500000,-17.417671,121.5871
2687000000,-16.923653,113.97354
2691500000,-16.62525,107.82507
2696000000,-16.299925,102.65556
2700500000,-15.93944,97.562103
2705000000,-15.668941,93.093063
2709500000,-15.425443,89.598206
2714000000,-15.130603,85.521889
2718500000,-14.928155,81.760208
2723000000,-14.846883,78.005531
2727500000,-14.629705,74.30954
2732000000,-14.637521,69.981491
2736500000,-14.640377,65.841362
2741000000,-14.635251,61.76086
2745500000,-14.707879,57.040081
2750000000,-14.780334,52.390934
2754500000,-14.849157,48.352692
2759000000,-14.887274,44.329784
2763500000,-14.878181,39.643314
2768000000,-14.800013,35.788898
2772500000,-14.672517,31.547846
2777000000,-14.584633,27.926968
2781500000,-14.3774,24.506535
2786000000,-14.192857,20.731812
2790500000,-14.052912,17.264336
2795000000,-13.973997,14.121212
2799500000,-13.89294,11.365647
2804000000,-13.795499,8.0379744
2808500000,-13.712142,4.7914429
2813000000,-13.745326,1.4438022
2817500000,-13.763631,-2.5013802
2822000000,-13.920907,-6.5463386
2826500000,-14.122025,-10.084019
2831000000,-14.275053,-14.023525
2835500000,-14.491796,-18.953161
2840000000,-14.724587,-23.121714
2844500000,-14.923781,-27.566198
2849000000,-15.199375,-32.755947
2853500000,-15.446591,-36.758144
2858000000,-15.55272,-40.983631
2862500000,-15.661772,-45.239037
2867000000,-15.79514,-48.110683
2871500000,-15.714077,-51.314011
2876000000,-15.702312,-54.972588
2880500000,-15.763291,-58.083656
2885000000,-15.643,-61.075546
2889500000,-15.748665,-64.515846
2894000000,-15.941912,-67.355042
2898500000,-16.070114,-70.153618
2903000000,-16.328026,-73.656906
2907500000,-16.644215,-76.361816
2912000000,-16.882599,-79.882195
2916500000,-17.299196,-84.370872
2921000000,-17.667589,-87.962784
2925500000,-17.955511,-91.772179
2930000000,-18.175562,-97.200867
2934500000,-18.58746,-101.70475
2939000000,-18.744144,-106.11507
2943500000,-18.97982,-111.22005
2948000000,-19.133677,-115.78482
2952500000,-19.089891,-119.85504
2957000000,-19.057203,-124.73494
2961500000,-18.963797,-128.48315
2966000000,-18.821184,-131.70288
2970500000,-18.809307,-136.2748
2975000000,-18.830294,-139.79495
2979500000,-18.902622,-142.38882
2984000000,-18.955908,-145.5779
2988500000,-19.138311,-149.1064
2993000000,-19.332159,-151.93517
2997500000,-19.499228,-155.55945
3002000000,-19.645258,-159.39854
3006500000,-19.727615,-163.81842
3011000000,-19.829622,-169.89735
3015500000,-19.997686,-176.02106
3020000000,-20.034105,177.82916
3024500000,-19.994719,170.69817
3029000000,-19.91972,164.27472
3033500000,-19.662214,157.06857
3038000000,-19.396452,151.64687
3042500000,-19.133442,145.45012
3047000000,-18.848709,140.21144
3051500000,-18.609455,136.08842
3056000000,-18.374289,131.24646
3060500000,-18.228222,126.27921
3065000000,-18.0858,122.19459
3069500000,-18.017015,117.2457
3074000000,-18.208504,111.42097
3078500000,-18.407898,106.41386
3083000000,-18.516645,101.40818
3087500000,-18.846939,95.295692
3092000000,-19.0991,89.371292
3096500000,-19.190897,83.527939
3101000000,-19.347677,75.267166
3105500000,-19.513338,68.008919
3110000000,-19.577183,60.733795
3114500000,-19.696043,53.585827
3119000000,-19.884642,47.55135
3123500000,-20.047684,42.268433
3128000000,-20.217241,37.478615
3132500000,-20.405188,33.780025
3137000000,-20.751358,30.846638
3141500000,-21.06473,28.34726
3146000000,-21.556795,26.684999
3150500000,-22.001541,25.501783
3155000000,-22.743767,25.110167
3159500000,-23.66185,26.454617
3164000000,-24.322786,28.488575
3168500000,-25.021622,33.156345
3173000000,-25.30934,36.873085
