!CSV A.01.01,,,
!Agilent Technologies,E8361C,US49010233,A.09.22.11
!Agilent E8361C: A.09.22.11,,,
!Date: Friday, September 30, 2022 10:19:07,
!Source: Standard,,,
,,,
BEGIN CH1_DATA,,,
Freq(Hz),S11(DB),S11(DEG),
500000000,-2.8487847,-176.04424,
522500000,-2.7903953,179.16765,
545000000,-2.7882366,174.30608,
567500000,-2.75629,169.57407,
590000000,-2.7139933,164.95374,
612500000,-2.6884549,159.99155,
635000000,-2.7229645,154.63538,
657500000,-2.7439976,149.5845,
680000000,-2.7904489,144.38823,
702500000,-2.8362246,138.74747,
725000000,-2.9610376,132.86546,
747500000,-3.2164698,126.71659,
770000000,-3.4596052,121.77786,
792500000,-3.6752591,115.12564,
815000000,-4.0386415,108.40531,
837500000,-4.5321898,101.19375,
860000000,-5.1890321,93.815659,
882500000,-5.9411507,85.893707,
905000000,-7.029779,77.636703,
927500000,-8.445219,68.871704,
950000000,-10.315784,60.221294,
972500000,-13.305983,53.024803,
995000000,-15.976601,55.353706,
1017500000,-20.019987,43.460293,
1040000000,-30.691404,28.127409,
1062500000,-26.903015,-143.0423,
1085000000,-18.473211,-158.65607,
1107500000,-14.610367,-166.80978,
1130000000,-12.014478,-176.33163,
1152500000,-10.357434,174.58826,
1175000000,-9.1593733,166.89697,
1197500000,-8.2784672,157.6163,
1220000000,-8.4142828,150.99295,
1242500000,-7.9599771,149.86481,
1265000000,-7.2777562,146.23854,
1287500000,-6.7307739,141.33458,
1310000000,-6.3637829,135.67838,
1332500000,-6.0930276,130.59174,
1355000000,-6.0062981,125.62183,
1377500000,-5.8634534,121.19257,
1400000000,-5.8172045,116.28054,
1422500000,-5.8586621,111.52168,
1445000000,-6.1228285,107.84665,
1467500000,-6.1111207,105.89958,
1490000000,-5.7798109,102.14442,
1512500000,-5.8716369,96.438759,
1535000000,-6.0898466,91.767021,
1557500000,-6.4794054,87.749374,
1580000000,-6.7936559,84.928688,
1602500000,-7.0827727,82.741005,
1625000000,-7.1939535,80.303871,
1647500000,-7.319428,77.635521,
1670000000,-7.2401085,74.281395,
1692500000,-7.4669595,67.556389,
1715000000,-8.1821632,62.620724,
1737500000,-8.9104815,60.684406,
1760000000,-9.3335199,58.565109,
1782500000,-9.7432175,55.657604,
1805000000,-10.195767,51.76786,
1827500000,-10.930522,45.671543,
1850000000,-12.171844,40.354553,
1872500000,-14.013493,35.631435,
1895000000,-16.599026,34.848541,
1917500000,-19.83749,44.115025,
1940000000,-21.982311,67.853065,
1962500000,-21.791183,93.071358,
1985000000,-19.974384,111.91809,
2007500000,-18.020195,122.32796,
2030000000,-15.706191,127.88378,
2052500000,-13.817169,128.10713,
2075000000,-12.145376,126.62309,
2097500000,-10.845386,122.7332,
2120000000,-9.8648176,118.67675,
2142500000,-9.083003,114.45972,
2165000000,-8.4356041,110.29941,
2187500000,-7.9091411,105.83951,
2210000000,-7.5116591,102.25217,
2232500000,-7.1703272,98.197853,
2255000000,-6.8837123,94.538307,
2277500000,-6.6337161,91.169991,
2300000000,-6.4519811,87.958374,
2322500000,-6.2225299,85.004875,
2345000000,-6.0640116,81.965378,
2367500000,-5.8560662,78.798515,
2390000000,-5.6934323,75.753487,
2412500000,-5.5452218,72.614479,
2435000000,-5.3597746,69.56514,
2457500000,-5.26928,66.315804,
2480000000,-5.1806951,62.712666,
2502500000,-5.0898495,59.467575,
2525000000,-5.0515928,56.033443,
2547500000,-5.0700126,52.813683,
2570000000,-5.095295,49.217022,
2592500000,-5.1413984,45.94138,
2615000000,-5.2217278,42.493095,
2637500000,-5.362288,39.298859,
2660000000,-5.5212941,35.769573,
2682500000,-5.7698736,32.517822,
2705000000,-6.0636125,29.738459,
2727500000,-6.3964405,26.86091,
2750000000,-6.7224765,24.750769,
2772500000,-7.1533508,22.790314,
2795000000,-7.5974607,21.322077,
2817500000,-8.0712833,20.475756,
2840000000,-8.5370283,20.498201,
2862500000,-8.9392195,21.382872,
2885000000,-9.3162098,22.809303,
2907500000,-9.5399294,24.846981,
2930000000,-9.5902901,27.538603,
2952500000,-9.4654846,30.138025,
2975000000,-9.231884,31.885807,
2997500000,-8.9098301,33.396206,
3020000000,-8.5061216,33.832218,
3042500000,-8.0707893,34.011784,
3065000000,-7.6402402,33.215881,
3087500000,-7.2455816,31.721464,
3110000000,-6.8854785,29.94883,
3132500000,-6.5674505,27.999411,
3155000000,-6.3432603,25.740219,
3177500000,-6.0762234,23.364674,
3200000000,-5.8348603,20.93507,
3222500000,-5.6202354,18.695589,
3245000000,-5.4969506,16.034502,
3267500000,-5.3590889,13.222694,
3290000000,-5.2033472,10.488309,
3312500000,-5.1356263,7.8446398,
3335000000,-5.0826182,5.0948238,
3357500000,-5.0240917,2.1406746,
3380000000,-4.9758053,-0.59000105,
3402500000,-4.9481883,-3.6302507,
3425000000,-5.0084376,-6.3708501,
3447500000,-5.0775628,-8.8297377,
3470000000,-5.1663761,-11.515024,
3492500000,-5.2347093,-14.074585,
3515000000,-5.3057098,-16.242693,
3537500000,-5.3855963,-18.232216,
3560000000,-5.4679098,-20.525688,
3582500000,-5.5529637,-22.797895,
3605000000,-5.6280694,-24.949966,
3627500000,-5.7601418,-27.476486,
3650000000,-5.906333,-29.896931,
3672500000,-6.0911555,-32.380901,
3695000000,-6.334723,-34.13348,
3717500000,-6.5773568,-36.268093,
3740000000,-6.840847,-37.453594,
3762500000,-7.0952678,-38.298386,
3785000000,-7.3045917,-38.866119,
3807500000,-7.4512339,-39.1194,
3830000000,-7.5582385,-39.550583,
3852500000,-7.6052418,-39.721703,
3875000000,-7.592751,-40.214096,
3897500000,-7.6007814,-41.109909,
3920000000,-7.5615401,-41.786617,
3942500000,-7.5204306,-43.04298,
3965000000,-7.5439925,-43.973911,
3987500000,-7.4608202,-45.078503,
4010000000,-7.4154587,-45.356434,
4032500000,-7.3055291,-46.765732,
4055000000,-7.2099514,-48.373779,
4077500000,-7.1976051,-49.627254,
4100000000,-7.0939698,-51.469032,
4122500000,-7.0087719,-53.360783,
4145000000,-6.9212942,-55.566231,
4167500000,-6.8804173,-58.027908,
4190000000,-6.8740077,-60.437126,
4212500000,-6.9247007,-62.98843,
4235000000,-6.9770947,-65.416756,
4257500000,-7.0879006,-67.97213,
4280000000,-7.2188845,-70.159164,
4302500000,-7.3078952,-72.200531,
4325000000,-7.4421067,-74.025124,
4347500000,-7.5185595,-75.705605,
4370000000,-7.5668502,-77.57563,
4392500000,-7.6396599,-79.724686,
4415000000,-7.7581525,-81.983772,
4437500000,-7.8474431,-84.205002,
4460000000,-7.9955192,-86.745308,
4482500000,-8.180563,-89.328217,
4505000000,-8.5116673,-90.661736,
4527500000,-8.7587109,-92.431992,
4550000000,-8.9991179,-94.061882,
4572500000,-9.1966858,-95.211502,
4595000000,-9.4617853,-95.732376,
4617500000,-9.5583954,-96.428276,
4640000000,-9.6541061,-98.1101,
4662500000,-9.7975445,-99.615135,
4685000000,-9.9281054,-101.26788,
4707500000,-10.175742,-102.84327,
4730000000,-10.353537,-104.41953,
4752500000,-10.589868,-105.40023,
4775000000,-10.81566,-106.2617,
4797500000,-10.947991,-106.84665,
4820000000,-11.086287,-107.92455,
4842500000,-11.213696,-108.25249,
4865000000,-11.232061,-109.1506,
4887500000,-11.258844,-109.97495,
4910000000,-11.295877,-111.56823,
4932500000,-11.359023,-112.96117,
4955000000,-11.448592,-114.94554,
4977500000,-11.545901,-117.04227,
5000000000,-11.721995,-117.51247,
