!CSV A.01.01
!Agilent Technologies,E8361C,US49010233,A.09.22.11
!Agilent E8361C: A.09.22.11
!Date: Wednesday, September 28, 2022 13:28:52
!Source: Standard

BEGIN CH1_DATA
Freq(Hz),S22(DB),S22(DEG)
500000000,-4.4468365,136.32161
504500000,-4.4939804,135.49431
509000000,-4.5887575,134.37547
513500000,-4.6942463,133.46526
518000000,-4.7971692,132.47478
522500000,-4.892314,131.61407
527000000,-5.0022368,130.6633
531500000,-5.1062741,129.5894
536000000,-5.1928926,128.35065
540500000,-5.3328562,127.05331
545000000,-5.5127959,125.96496
549500000,-5.6916046,124.81561
554000000,-5.879086,123.84766
558500000,-6.0949755,122.9953
563000000,-6.322051,122.02503
567500000,-6.6209459,120.62882
572000000,-6.9728851,119.52879
576500000,-7.3334446,118.46259
581000000,-7.6601348,117.58179
585500000,-8.0393124,116.65522
590000000,-8.4471893,115.69901
594500000,-8.8351231,115.57755
599000000,-9.2190666,115.85677
603500000,-9.5917397,116.53417
608000000,-9.9411421,117.2783
612500000,-10.279732,117.97903
617000000,-10.628325,118.90264
621500000,-11.016184,119.96569
626000000,-11.383368,121.72103
630500000,-11.701962,123.75863
635000000,-11.949997,125.74533
639500000,-12.172676,127.79589
644000000,-12.335349,129.97198
648500000,-12.488625,132.15413
653000000,-12.662682,134.45453
657500000,-12.799674,137.35284
662000000,-12.911999,140.46278
666500000,-12.998325,144.37766
671000000,-12.966186,148.07484
675500000,-12.906512,151.60155
680000000,-12.716974,155.25795
684500000,-12.488736,158.38054
689000000,-12.154816,160.64885
693500000,-11.777608,161.86502
698000000,-11.376741,162.51311
702500000,-10.98436,162.40828
707000000,-10.645368,162.26389
711500000,-10.251581,161.60916
716000000,-9.9554663,160.87717
720500000,-9.6139774,160.22792
725000000,-9.3679943,159.24271
729500000,-9.2080488,158.25145
734000000,-9.0782404,157.14679
738500000,-9.0013733,156.00145
743000000,-8.8726597,155.23824
747500000,-8.801405,154.25398
752000000,-8.6734781,153.248
756500000,-8.5991774,152.21074
761000000,-8.5100307,151.22144
765500000,-8.4324474,150.78563
770000000,-8.3480883,150.22696
774500000,-8.2592516,149.35995
779000000,-8.3088293,149.17003
783500000,-8.2405891,149.00572
788000000,-8.2525768,147.6311
792500000,-8.3919649,146.55074
797000000,-8.4825773,146.03978
801500000,-8.4774113,144.8356
806000000,-8.5593748,142.79128
810500000,-8.7410269,141.82196
815000000,-8.7577677,141.16862
819500000,-8.742692,139.48907
824000000,-8.9324951,138.17505
828500000,-9.1219301,138.10678
833000000,-9.1281366,137.52625
837500000,-9.3273115,136.21796
842000000,-9.5834789,135.44501
846500000,-9.7640123,135.59888
851000000,-9.90973,134.72063
855500000,-10.204695,133.52202
860000000,-10.546494,133.93806
864500000,-10.69517,134.50813
869000000,-10.852626,134.74326
873500000,-11.138352,135.57988
878000000,-11.24565,138.05408
882500000,-11.310506,140.20184
887000000,-11.42917,141.54779
891500000,-11.570394,144.29222
896000000,-11.57797,146.91936
900500000,-11.621742,148.38535
905000000,-11.710755,149.73799
909500000,-11.731089,151.56058
914000000,-11.605282,152.26062
918500000,-11.534313,152.2764
923000000,-11.478971,152.94574
927500000,-11.257562,153.88237
932000000,-11.055472,153.32254
936500000,-11.0097,153.38368
941000000,-10.822244,154.75333
945500000,-10.611591,155.11017
950000000,-10.505242,154.99893
954500000,-10.516303,155.30006
959000000,-10.406997,155.20279
963500000,-10.255846,154.82602
968000000,-10.206278,154.16121
972500000,-10.081309,154.42584
977000000,-9.8061342,153.88477
981500000,-9.5812387,153.01221
986000000,-9.454566,152.8604
990500000,-9.2720308,153.41386
995000000,-9.0307226,153.34538
999500000,-8.9390802,152.89236
1004000000,-8.9207554,153.18239
1008500000,-8.8281021,153.2332
1013000000,-8.7516241,152.34082
1017500000,-8.8204441,151.2332
1022000000,-8.8262014,150.71758
1026500000,-8.7156219,149.35072
1031000000,-8.7396021,147.32771
1035500000,-8.785347,146.45314
1040000000,-8.6887302,145.88635
1044500000,-8.5559959,144.47797
1049000000,-8.6304512,143.22906
1053500000,-8.6660442,142.99861
1058000000,-8.6484594,142.56332
1062500000,-8.6970129,140.62604
1067000000,-8.8840647,139.81882
1071500000,-8.9566784,139.27554
1076000000,-8.9203119,137.58524
1080500000,-9.0199232,135.44647
1085000000,-9.1503887,134.99773
1089500000,-9.0732813,134.28162
1094000000,-9.0383759,132.87761
1098500000,-9.1696768,132.35976
1103000000,-9.2578993,132.97107
1107500000,-9.234479,132.78188
1112000000,-9.4060936,132.31935
1116500000,-9.7318344,132.3351
1121000000,-9.9067831,132.79794
1125500000,-10.09675,131.924
1130000000,-10.416746,130.81795
1134500000,-10.64846,130.84491
1139000000,-10.738094,130.14175
1143500000,-10.852701,128.60217
1148000000,-11.054866,128.35104
1152500000,-11.130414,128.55161
1157000000,-11.114565,128.2953
1161500000,-11.355844,127.85703
1166000000,-11.634494,128.33429
1170500000,-11.772051,128.46074
1175000000,-12.041768,127.26171
1179500000,-12.445775,126.50657
1184000000,-12.761812,126.28452
1188500000,-12.940956,125.57507
1193000000,-13.201715,124.27769
1197500000,-13.453167,124.71732
1202000000,-13.558935,125.89779
1206500000,-13.686217,126.92067
1211000000,-13.986824,129.19026
1215500000,-14.206368,132.52368
1220000000,-14.403151,135.77866
1224500000,-14.698461,138.60426
1229000000,-15.062204,141.71942
1233500000,-15.254974,145.73976
1238000000,-15.526097,147.29379
1242500000,-15.723531,149.47365
1247000000,-15.781487,151.88974
1251500000,-15.769409,154.07135
1256000000,-15.658241,155.14236
1260500000,-15.46792,157.28767
1265000000,-15.193031,159.47147
1269500000,-14.979415,161.56552
1274000000,-14.826505,163.74216
1278500000,-14.616321,166.27856
1283000000,-14.420971,168.04773
1287500000,-14.326247,169.02003
1292000000,-14.28945,169.99265
1296500000,-14.167288,170.418
1301000000,-14.049014,169.78389
1305500000,-13.896555,169.63838
1310000000,-13.62229,169.62262
1314500000,-13.231984,169.41257
1319000000,-12.924221,169.15378
1323500000,-12.585314,170.33202
1328000000,-12.244092,171.64877
1332500000,-11.984024,172.9156
1337000000,-11.789685,174.65694
1341500000,-11.64914,176.22905
1346000000,-11.472767,177.05659
1350500000,-11.482997,177.39578
1355000000,-11.386928,177.75957
1359500000,-11.274043,177.58516
1364000000,-11.100179,176.64938
1368500000,-10.936043,176.1622
1373000000,-10.678718,176.04247
1377500000,-10.430685,175.87425
1382000000,-10.208223,175.55975
1386500000,-10.026367,176.00346
1391000000,-9.8889666,176.46484
1395500000,-9.760807,176.2917
1400000000,-9.7428408,175.89639
1404500000,-9.7329435,175.48872
1409000000,-9.6533928,174.14159
1413500000,-9.5579777,172.75011
1418000000,-9.4758224,171.36617
1422500000,-9.2978621,170.37463
1427000000,-9.0278034,169.15617
1431500000,-8.8031406,168.67755
1436000000,-8.6412868,168.58562
1440500000,-8.4536552,168.95509
1445000000,-8.3177938,168.76617
1449500000,-8.2694635,169.26207
1454000000,-8.2433367,169.51573
1458500000,-8.193594,169.20409
1463000000,-8.2073689,168.59955
1467500000,-8.2340393,168.12122
1472000000,-8.1888256,167.40694
1476500000,-8.1003656,166.18007
1481000000,-8.0303726,165.31459
1485500000,-7.934144,165.29436
1490000000,-7.816474,164.8468
1494500000,-7.751195,164.60707
1499000000,-7.7396746,164.75815
1503500000,-7.7241664,164.50868
1508000000,-7.7632184,164.38338
1512500000,-7.8586521,163.85229
1517000000,-7.8344293,162.83322
1521500000,-7.868587,161.19815
1526000000,-7.8833537,160.20364
1530500000,-7.7880416,159.38583
1535000000,-7.608984,158.0238
1539500000,-7.5745935,157.04356
1544000000,-7.4361649,157.29276
1548500000,-7.2538943,157.47615
1553000000,-7.1989226,157.35379
1557500000,-7.2125816,157.70818
1562000000,-7.1918583,158.48483
1566500000,-7.1876979,158.37505
1571000000,-7.2945971,157.75771
1575500000,-7.3923011,157.60214
1580000000,-7.3679376,156.93195
1584500000,-7.3346319,155.67302
1589000000,-7.3518543,155.15753
1593500000,-7.2755475,155.21704
1598000000,-7.1354814,154.95496
1602500000,-7.1182437,154.5515
1607000000,-7.1920109,155.19521
1611500000,-7.1325583,155.69176
1616000000,-7.1597395,155.28752
1620500000,-7.3336639,154.7795
1625000000,-7.4485831,154.48369
1629500000,-7.3794799,153.5043
1634000000,-7.4631233,151.6163
1638500000,-7.5266719,150.60623
1643000000,-7.3849282,150.23395
1647500000,-7.2224479,149.06792
1652000000,-7.1579881,148.66965
1656500000,-7.108851,149.33798
1661000000,-6.9588609,149.87872
1665500000,-6.938539,149.92778
1670000000,-7.0291486,150.61363
1674500000,-7.0543966,151.22105
1679000000,-7.0442467,150.91328
1683500000,-7.1464033,150.43158
1688000000,-7.2263527,150.50009
1692500000,-7.1762185,149.85246
1697000000,-7.1326895,149.0114
1701500000,-7.1637506,148.55113
1706000000,-7.1342731,149.06287
1710500000,-7.0189967,149.08957
1715000000,-7.0125709,149.07434
1719500000,-7.0770221,149.71089
1724000000,-7.0856881,150.35138
1728500000,-7.1357746,150.01183
1733000000,-7.3247461,149.54956
1737500000,-7.4248629,149.54427
1742000000,-7.3995166,148.57932
1746500000,-7.4140382,146.89838
1751000000,-7.4543581,146.04601
1755500000,-7.3027711,145.80042
1760000000,-7.1133404,145.45348
1764500000,-7.0538359,145.17821
1769000000,-6.9593363,146.21844
1773500000,-6.8051639,147.10612
1778000000,-6.754262,147.31593
1782500000,-6.8505182,148.03168
1787000000,-6.8757434,148.77684
1791500000,-6.8316927,148.45644
1796000000,-6.9294896,147.62486
1800500000,-6.9928885,147.7119
1805000000,-6.8794336,147.35262
1809500000,-6.7848458,146.49899
1814000000,-6.7353592,146.14331
1818500000,-6.6603923,146.88545
1823000000,-6.5169744,147.30998
1827500000,-6.5182085,147.4113
1832000000,-6.6008286,148.08414
1836500000,-6.6005745,148.48096
1841000000,-6.6434846,147.89813
1845500000,-6.7929406,147.26984
1850000000,-6.8762417,146.72311
1854500000,-6.7785001,145.74544
1859000000,-6.7732296,144.09093
1863500000,-6.7339563,143.41901
1868000000,-6.5747561,143.10829
1872500000,-6.3681197,142.69217
1877000000,-6.3095655,142.5477
1881500000,-6.2593579,143.45578
1886000000,-6.1478114,144.22083
1890500000,-6.0813308,144.22156
1895000000,-6.1846151,144.4854
1899500000,-6.1617074,144.83774
1904000000,-6.1271024,144.51553
1908500000,-6.1693149,143.5266
1913000000,-6.1981444,143.22839
1917500000,-6.0628562,142.95663
1922000000,-5.9708691,142.26358
1926500000,-5.9571967,142.12581
1931000000,-5.869617,142.56343
1935500000,-5.7450333,142.91466
1940000000,-5.7536559,142.81961
1944500000,-5.8504319,143.36363
1949000000,-5.8496161,143.55374
1953500000,-5.8954225,142.77777
1958000000,-6.0500717,141.81419
1962500000,-6.1472707,141.13495
1967000000,-6.0289793,139.84633
1971500000,-6.0065007,137.93494
1976000000,-5.9576287,137.26627
1980500000,-5.8221083,137.24016
1985000000,-5.6458006,137.04248
1989500000,-5.6183519,136.85609
1994000000,-5.5823622,137.72813
1998500000,-5.4386349,138.02869
2003000000,-5.4689484,137.8591
2007500000,-5.5787835,138.13411
2012000000,-5.5870523,138.33934
2016500000,-5.5480409,137.54498
2021000000,-5.5712028,136.51187
2025500000,-5.6078653,136.10924
2030000000,-5.4770837,135.94376
2034500000,-5.3449559,135.22739
2039000000,-5.3863392,135.0715
2043500000,-5.3460746,136.06604
2048000000,-5.2634425,136.50557
2052500000,-5.3228221,136.3044
2057000000,-5.4644732,136.55632
2061500000,-5.4905033,136.64177
2066000000,-5.5492501,135.55615
2070500000,-5.7508826,134.32594
2075000000,-5.7812514,133.74237
2079500000,-5.6449027,132.46188
2084000000,-5.608861,130.84811
2088500000,-5.6117325,130.36308
2093000000,-5.4930334,130.67383
2097500000,-5.3244591,130.57948
2102000000,-5.3244276,130.53058
2106500000,-5.3103819,131.34564
2111000000,-5.240324,131.82124
2115500000,-5.2562165,131.55171
2120000000,-5.369185,131.71516
2124500000,-5.3862643,131.7818
2129000000,-5.3376007,131.29004
2133500000,-5.3733778,130.10509
2138000000,-5.3875384,130.08987
2142500000,-5.2526193,130.07773
2147000000,-5.1646757,129.54352
2151500000,-5.1961966,129.84041
2156000000,-5.1367369,130.75616
2160500000,-5.0605454,131.05084
2165000000,-5.1267138,130.85028
2169500000,-5.2809067,131.23499
2174000000,-5.339395,131.22174
2178500000,-5.3861766,130.05507
2183000000,-5.5356193,128.93007
2187500000,-5.55971,128.10963
2192000000,-5.4405317,127.00894
2196500000,-5.4023142,125.6441
2201000000,-5.3821077,125.29347
2205500000,-5.235292,125.91167
2210000000,-5.0712419,125.84035
2214500000,-5.0881629,125.78249
2219000000,-5.0915408,126.87619
2223500000,-5.014977,127.27837
2228000000,-5.0649519,126.65311
2232500000,-5.1733556,126.8295
2237000000,-5.1403365,126.8577
2241500000,-5.042202,125.85823
2246000000,-5.0698709,124.90863
2250500000,-5.0493484,125.13534
2255000000,-4.8690853,125.13628
2259500000,-4.7780576,124.80589
2264000000,-4.8172374,125.17937
2268500000,-4.7951832,126.39275
2273000000,-4.7143011,126.55242
2277500000,-4.8494225,126.17982
2282000000,-4.9713392,126.23656
2286500000,-5.0297713,125.90247
2291000000,-5.0449834,124.4864
2295500000,-5.1611748,123.23101
2300000000,-5.1564078,122.77634
2304500000,-5.0021605,121.69501
2309000000,-4.9412904,120.41808
2313500000,-4.9634285,120.41465
2318000000,-4.7977686,121.15182
2322500000,-4.6692929,120.66406
2327000000,-4.7252545,120.56414
2331500000,-4.7419953,121.56225
2336000000,-4.659143,121.65847
2340500000,-4.6733246,120.6702
2345000000,-4.7896781,120.74015
2349500000,-4.7594776,120.65603
2354000000,-4.6450038,119.58286
2358500000,-4.6653976,118.69914
2363000000,-4.6500425,119.22457
2367500000,-4.4720654,119.38117
2372000000,-4.4049869,119.07538
2376500000,-4.463069,119.46527
2381000000,-4.4636168,120.2558
2385500000,-4.4284587,120.50814
2390000000,-4.5509105,119.87324
2394500000,-4.7073588,119.97074
2399000000,-4.7158899,119.59545
2403500000,-4.7535381,117.80515
2408000000,-4.8724527,116.50198
2412500000,-4.8737717,115.87119
2417000000,-4.6724439,115.09547
2421500000,-4.6333303,113.94342
2426000000,-4.6012173,114.1468
2430500000,-4.482955,114.84728
2435000000,-4.3946786,114.38118
2439500000,-4.4940381,114.3391
2444000000,-4.5300288,115.18595
2448500000,-4.4748063,115.0987
2453000000,-4.5230026,114.10514
2457500000,-4.6316319,113.8314
2462000000,-4.5321178,113.72151
2466500000,-4.4208589,112.77331
2471000000,-4.4354143,112.11563
2475500000,-4.4096618,112.85911
2480000000,-4.2536001,113.23225
2484500000,-4.2324867,113.01641
2489000000,-4.3416896,113.55222
2493500000,-4.3258476,114.46666
2498000000,-4.3124366,114.08097
2502500000,-4.4698997,113.34885
2507000000,-4.6349568,113.36375
2511500000,-4.621151,112.75607
2516000000,-4.6074409,111.18339
2520500000,-4.7075877,110.01105
2525000000,-4.6708865,109.69945
2529500000,-4.5373225,108.79482
2534000000,-4.5158868,107.85727
2538500000,-4.5533853,108.20038
2543000000,-4.4231653,108.80643
2547500000,-4.3369904,108.37296
2552000000,-4.4606462,108.39404
2556500000,-4.471611,109.00542
2561000000,-4.3795156,108.70152
2565500000,-4.4691305,107.7092
2570000000,-4.5641437,107.79694
2574500000,-4.475214,107.78618
2579000000,-4.3640656,106.82975
2583500000,-4.3741555,106.31634
2588000000,-4.3327088,107.05703
2592500000,-4.1710653,107.46415
2597000000,-4.1647987,107.35078
2601500000,-4.2705889,108.01804
2606000000,-4.2947435,108.96945
2610500000,-4.2723427,108.59038
2615000000,-4.4392719,107.80801
2619500000,-4.5982361,107.67934
2624000000,-4.570775,106.8147
2628500000,-4.5648775,105.17744
2633000000,-4.6860929,104.11031
2637500000,-4.6059089,104.18166
2642000000,-4.4228187,103.51073
2646500000,-4.4276457,102.51549
2651000000,-4.4565258,103.26382
2655500000,-4.3106413,103.77461
2660000000,-4.3013616,103.06833
2664500000,-4.4559922,103.08994
2669000000,-4.4510794,103.77866
2673500000,-4.3707681,103.10721
2678000000,-4.4139023,101.92249
2682500000,-4.4657803,102.00779
2687000000,-4.3161545,102.00847
2691500000,-4.2106953,101.35071
2696000000,-4.2590561,101.34326
2700500000,-4.206512,102.30646
2705000000,-4.0626407,102.5418
2709500000,-4.097403,102.36995
2714000000,-4.2428985,103.08837
2718500000,-4.2177663,103.78974
2723000000,-4.2256308,102.98826
2727500000,-4.3931918,102.24049
2732000000,-4.5057406,102.23685
2736500000,-4.4431663,101.55343
2741000000,-4.4455214,99.784676
2745500000,-4.5385647,99.137421
2750000000,-4.4337707,99.180077
2754500000,-4.2965941,98.262596
2759000000,-4.3430562,97.440681
2763500000,-4.381474,98.17083
2768000000,-4.2553439,98.445343
2772500000,-4.2154374,97.703705
2777000000,-4.3623219,97.424873
2781500000,-4.3385248,98.024185
2786000000,-4.2277741,97.162712
2790500000,-4.2949357,96.259773
2795000000,-4.3428421,96.522148
2799500000,-4.1867728,96.662651
2804000000,-4.0672293,96.061859
2808500000,-4.1318088,96.040375
2813000000,-4.0663419,97.080818
2817500000,-3.9207501,97.317879
2822000000,-4.0212812,97.115143
2826500000,-4.1457534,97.89492
2831000000,-4.1388059,98.333992
2835500000,-4.1551919,97.532455
2840000000,-4.3274889,96.475006
2844500000,-4.419157,96.410408
2849000000,-4.311234,95.605774
2853500000,-4.3196874,93.866661
2858000000,-4.4053454,93.502464
2862500000,-4.2821236,93.733055
2867000000,-4.1460023,92.863312
2871500000,-4.225152,92.170593
2876000000,-4.283267,92.739487
2880500000,-4.1731601,92.789047
2885000000,-4.2048378,91.83474
2889500000,-4.3305378,91.825775
2894000000,-4.2708054,92.122604
2898500000,-4.1482811,91.244492
2903000000,-4.1761885,90.316986
2907500000,-4.2071176,90.780457
2912000000,-4.0233564,90.996193
2916500000,-3.9479268,90.377548
2921000000,-4.0332451,90.818619
2925500000,-3.9809396,91.926041
2930000000,-3.8889167,91.793594
2934500000,-3.9931843,91.476059
2939000000,-4.1267009,92.01442
2943500000,-4.0983481,92.287994
2948000000,-4.1090732,91.198181
2952500000,-4.2739615,90.51133
2957000000,-4.2986989,90.658379
2961500000,-4.2103167,89.769142
2966000000,-4.2567768,88.205368
2970500000,-4.3549867,87.832596
2975000000,-4.2706985,88.083679
2979500000,-4.1574321,87.224518
2984000000,-4.2424512,86.72979
2988500000,-4.242094,87.382309
2993000000,-4.1353526,86.832825
2997500000,-4.2075248,85.809586
3002000000,-4.2836242,86.552971
3006500000,-4.1307349,85.793823
3011000000,-4.1716185,84.766144
3015500000,-4.2216005,85.012337
3020000000,-4.0622578,85.34005
3024500000,-3.9681983,84.656387
3029000000,-4.0768824,85.034019
3033500000,-3.9922798,86.014091
3038000000,-3.8675218,86.182106
3042500000,-3.9442487,85.735039
3047000000,-4.1160431,86.596397
3051500000,-4.0696025,86.997391
3056000000,-4.075212,86.130409
3060500000,-4.2592287,85.283295
3065000000,-4.3140702,85.515343
3069500000,-4.1949511,84.822914
3074000000,-4.23387,83.346733
3078500000,-4.3307309,83.130814
3083000000,-4.2551947,83.357895
3087500000,-4.1454201,82.282898
3092000000,-4.2865195,81.399094
3096500000,-4.3225493,82.028954
3101000000,-4.2202516,81.791847
3105500000,-4.2292485,80.438927
3110000000,-4.3484287,80.274521
3114500000,-4.246273,80.596146
3119000000,-4.1145744,79.632301
3123500000,-4.1475058,78.946747
3128000000,-4.1786799,79.569229
3132500000,-4.0334563,80.096443
3137000000,-3.967253,79.566772
3141500000,-4.0336719,79.693695
3146000000,-4.0269456,80.792442
3150500000,-3.9152555,80.684769
3155000000,-4.028018,80.257454
3159500000,-4.1465816,80.972755
3164000000,-4.0796399,81.268471
3168500000,-4.0832086,80.316483
3173000000,-4.2276139,79.700439
3177500000,-4.2979488,80.007591
3182000000,-4.1731744,79.417953
3186500000,-4.2677364,78.020935
3191000000,-4.3662252,78.080833
3195500000,-4.28684,78.179634
3200000000,-4.2035017,77.048409
3204500000,-4.321094,76.095428
3209000000,-4.3381338,76.366676
3213500000,-4.2251663,76.17205
3218000000,-4.2513928,74.684158
3222500000,-4.3662038,74.777931
3227000000,-4.2488418,75.185532
