!CSV A.01.01,,,
!Agilent Technologies,E8361C,US49010233,A.09.22.11
!Agilent E8361C: A.09.22.11,,,
!Date: Wednesday, September 28, 2022 13:29:04,
!Source: Standard,,,
,,,
BEGIN CH1_DATA,,,
Freq(Hz),S11(DB),S11(DEG),
500000000,-0.26372227,165.70946,
504500000,-0.27233925,164.30885,
509000000,-0.2558763,162.88702,
513500000,-0.30061659,161.16286,
518000000,-0.25899875,159.59567,
522500000,-0.29968134,158.03409,
527000000,-0.28486469,156.50169,
531500000,-0.27218917,155.18004,
536000000,-0.2750833,153.59657,
540500000,-0.29354486,151.93669,
545000000,-0.3072421,150.41148,
549500000,-0.29741734,148.81882,
554000000,-0.28544882,147.35945,
558500000,-0.28961557,145.92386,
563000000,-0.32087636,144.19917,
567500000,-0.32968131,142.62848,
572000000,-0.33031592,141.0567,
576500000,-0.31162611,139.37695,
581000000,-0.34014022,138.06366,
585500000,-0.30999044,136.38721,
590000000,-0.33941677,134.89053,
594500000,-0.33912641,133.2717,
599000000,-0.30065811,131.64323,
603500000,-0.33229139,130.27129,
608000000,-0.35034707,128.95181,
612500000,-0.31109974,127.50719,
617000000,-0.33651161,126.10651,
621500000,-0.32150084,124.51601,
626000000,-0.34543779,123.05248,
630500000,-0.32348722,121.79768,
635000000,-0.32992092,120.17026,
639500000,-0.3378391,118.69096,
644000000,-0.36375976,117.40609,
648500000,-0.3712652,115.83172,
653000000,-0.38243112,114.46803,
657500000,-0.35132849,112.75782,
662000000,-0.35703722,111.54005,
666500000,-0.37751588,109.65262,
671000000,-0.37166998,108.27635,
675500000,-0.34671599,106.63837,
680000000,-0.40161741,105.29039,
684500000,-0.37387487,103.80577,
689000000,-0.36951533,102.36507,
693500000,-0.40692645,100.75968,
698000000,-0.36822459,99.204239,
702500000,-0.37578544,98.025154,
707000000,-0.35709235,96.399109,
711500000,-0.34951749,94.977448,
716000000,-0.37227601,93.690636,
720500000,-0.3711766,92.202728,
725000000,-0.39139014,90.780914,
729500000,-0.37355441,89.402069,
734000000,-0.37277228,88.198128,
738500000,-0.37224925,86.620667,
743000000,-0.36410367,85.212006,
747500000,-0.392315,83.884666,
752000000,-0.40182859,82.430183,
756500000,-0.41266343,81.02092,
761000000,-0.37802508,79.472282,
765500000,-0.42356002,78.031616,
770000000,-0.40916038,76.627075,
774500000,-0.41621706,75.035431,
779000000,-0.42472216,73.212852,
783500000,-0.41663727,72.14489,
788000000,-0.40047011,70.495148,
792500000,-0.3977381,68.756844,
797000000,-0.43405509,67.422783,
801500000,-0.41252336,66.115974,
806000000,-0.42180109,64.667877,
810500000,-0.41166377,63.149704,
815000000,-0.42646921,61.884323,
819500000,-0.45887613,60.363724,
824000000,-0.45312214,58.980167,
828500000,-0.45338413,57.947865,
833000000,-0.39085269,56.354435,
837500000,-0.46888945,54.653961,
842000000,-0.43448997,53.813198,
846500000,-0.44315994,52.001411,
851000000,-0.43853673,50.442978,
855500000,-0.44547266,48.971962,
860000000,-0.452932,47.404709,
864500000,-0.46565852,45.970173,
869000000,-0.42926466,44.805309,
873500000,-0.4584786,42.989521,
878000000,-0.4845545,41.211716,
882500000,-0.47338182,40.032261,
887000000,-0.41333848,38.097103,
891500000,-0.50774622,36.460964,
896000000,-0.45655137,35.354694,
900500000,-0.4188621,33.527874,
905000000,-0.46707445,32.067852,
909500000,-0.44785514,30.799639,
914000000,-0.44601169,29.211216,
918500000,-0.48218447,27.65856,
923000000,-0.47192988,26.446419,
927500000,-0.46223283,24.719267,
932000000,-0.52740723,22.896772,
936500000,-0.51318455,21.855629,
941000000,-0.46863616,20.122028,
945500000,-0.52256233,18.384754,
950000000,-0.51705533,16.972364,
954500000,-0.51319617,15.221594,
959000000,-0.5202316,13.278582,
963500000,-0.54460776,11.878771,
968000000,-0.50772369,9.5763874,
972500000,-0.58164716,7.6209407,
977000000,-0.59675002,6.0320263,
981500000,-0.55738765,4.046123,
986000000,-0.58916837,1.7562976,
990500000,-0.62592143,0.42672911,
995000000,-0.57970625,-2.0779269,
999500000,-0.68032402,-4.4247136,
1004000000,-0.67131722,-5.96877,
1008500000,-0.64526844,-8.5287962,
1013000000,-0.75261283,-11.120564,
1017500000,-0.83764225,-12.805067,
1022000000,-0.79095984,-15.280746,
1026500000,-0.94751912,-18.190569,
1031000000,-1.0754403,-20.430489,
1035500000,-1.0859729,-23.285847,
1040000000,-1.2878098,-27.009245,
1044500000,-1.4878094,-29.930824,
1049000000,-1.664844,-33.80043,
1053500000,-2.0468891,-38.699039,
1058000000,-2.6153288,-42.820683,
1062500000,-3.1310883,-47.615768,
1067000000,-3.9838107,-52.877441,
1071500000,-5.2150798,-57.319878,
1076000000,-6.8687892,-60.780838,
1080500000,-9.1360807,-61.385956,
1085000000,-12.126526,-53.393204,
1089500000,-14.373683,-27.660566,
1094000000,-12.674361,0.055072144,
1098500000,-9.8160677,9.4097967,
1103000000,-7.7470412,9.3982077,
1107500000,-6.404285,7.2226424,
1112000000,-5.3945413,4.3416753,
1116500000,-4.6649647,0.8916319,
1121000000,-4.1892505,-1.9157304,
1125500000,-3.7148492,-4.0647564,
1130000000,-3.2927904,-6.8932309,
1134500000,-2.8479514,-9.1451788,
1139000000,-2.5019069,-13.716024,
1143500000,-2.5206332,-16.918556,
1148000000,-2.4623716,-19.14546,
1152500000,-2.338145,-21.166225,
1157000000,-2.1854806,-23.87529,
1161500000,-2.1941786,-26.572891,
1166000000,-2.1303449,-28.575401,
1170500000,-2.0231364,-31.207148,
1175000000,-2.0996921,-33.917351,
1179500000,-2.1007581,-35.741402,
1184000000,-2.0458844,-38.136433,
1188500000,-2.1234081,-40.463741,
1193000000,-2.1132474,-42.159077,
1197500000,-2.1051776,-44.424641,
1202000000,-2.2152274,-47.001598,
1206500000,-2.245151,-48.048695,
1211000000,-2.2759826,-50.141857,
1215500000,-2.3566647,-51.725536,
1220000000,-2.3531446,-52.652607,
1224500000,-2.3278122,-54.196533,
1229000000,-2.3562,-55.933025,
1233500000,-2.4283843,-57.10561,
1238000000,-2.3598404,-58.583317,
1242500000,-2.4048488,-60.631939,
1247000000,-2.4527636,-61.876774,
1251500000,-2.4462519,-63.743542,
1256000000,-2.5628607,-65.785934,
1260500000,-2.6392298,-66.899704,
1265000000,-2.6860588,-68.476059,
1269500000,-2.7569571,-70.228081,
1274000000,-2.8019078,-71.328812,
1278500000,-2.7724197,-73.207008,
1283000000,-2.7893581,-74.900673,
1287500000,-2.884419,-76.266136,
1292000000,-2.819381,-78.281677,
1296500000,-2.9321456,-80.094498,
1301000000,-2.9771469,-81.564293,
1305500000,-2.9781725,-82.910919,
1310000000,-3.0299699,-84.771553,
1314500000,-3.0517769,-85.904045,
1319000000,-2.9947011,-87.631798,
1323500000,-3.0148551,-89.172615,
1328000000,-3.0708606,-90.255768,
1332500000,-3.0428753,-91.89045,
1337000000,-3.1355419,-93.726334,
1341500000,-3.1444039,-95.113167,
1346000000,-3.1229091,-96.904533,
1350500000,-3.2372851,-98.638557,
1355000000,-3.2965307,-100.07494,
1359500000,-3.3021123,-101.68659,
1364000000,-3.3597219,-103.86937,
1368500000,-3.399632,-105.40776,
1373000000,-3.4013515,-107.72486,
1377500000,-3.4443574,-110.02663,
1382000000,-3.5385413,-112.32308,
1386500000,-3.5817404,-114.61279,
1391000000,-3.6771858,-117.09077,
1395500000,-3.7722638,-119.39451,
1400000000,-3.8677692,-121.7756,
1404500000,-4.0297203,-124.26994,
1409000000,-4.1896138,-126.89877,
1413500000,-4.3812304,-129.04343,
1418000000,-4.6723814,-131.32193,
1422500000,-5.0186596,-133.99881,
1427000000,-5.6042051,-135.43721,
1431500000,-6.3252077,-134.75374,
1436000000,-6.7912235,-129.1292,
1440500000,-6.07195,-124.77156,
1445000000,-5.35849,-127.03447,
1449500000,-5.1595054,-130.65276,
1454000000,-5.1789913,-133.88927,
1458500000,-5.2410431,-136.37436,
1463000000,-5.3533874,-138.94992,
1467500000,-5.4867454,-140.94463,
1472000000,-5.5421624,-143.03011,
1476500000,-5.6035662,-145.51086,
1481000000,-5.7397037,-147.74123,
1485500000,-5.814795,-150.05684,
1490000000,-5.8613305,-152.69096,
1494500000,-6.0574012,-155.29642,
1499000000,-6.1355262,-157.59793,
1503500000,-6.27178,-159.95866,
1508000000,-6.4282374,-162.27191,
1512500000,-6.570148,-164.6246,
1517000000,-6.763752,-166.86981,
1521500000,-6.8559775,-168.78621,
1526000000,-7.0612569,-171.55849,
1530500000,-7.3206749,-174.14493,
1535000000,-7.5351515,-176.37752,
1539500000,-7.8231492,-179.39996,
1544000000,-8.2467766,177.86411,
1548500000,-8.6422834,175.61778,
1553000000,-9.0562201,172.46327,
1557500000,-9.6381369,169.74944,
1562000000,-10.17943,167.47827,
1566500000,-10.745122,164.28813,
1571000000,-11.572508,161.75269,
1575500000,-12.322519,159.91702,
1580000000,-13.151433,157.89391,
1584500000,-14.09543,157.24829,
1589000000,-14.990485,157.41789,
1593500000,-15.921976,157.86008,
1598000000,-17.084528,160.04099,
1602500000,-17.956371,164.83931,
1607000000,-18.583405,170.30185,
1611500000,-19.16758,176.57571,
1616000000,-19.438904,-175.30362,
1620500000,-19.434525,-167.24792,
1625000000,-19.041618,-159.21819,
1629500000,-18.337925,-152.82401,
1634000000,-17.569935,-148.25421,
1638500000,-16.702282,-144.68327,
1643000000,-15.913888,-143.05844,
1647500000,-15.226061,-142.19043,
1652000000,-14.614597,-141.51596,
1656500000,-13.99574,-142.25232,
1661000000,-13.52824,-143.41011,
1665500000,-13.167229,-144.67767,
1670000000,-12.814518,-146.22667,
1674500000,-12.592728,-147.98051,
1679000000,-12.282991,-149.73773,
1683500000,-12.050135,-152.07571,
1688000000,-11.822066,-154.35287,
1692500000,-11.528787,-156.55269,
1697000000,-11.313118,-159.60309,
1701500000,-11.169648,-162.83826,
1706000000,-11.021403,-165.16325,
1710500000,-10.825404,-167.72342,
1715000000,-10.735947,-170.58255,
1719500000,-10.641919,-172.76517,
1724000000,-10.516313,-174.72157,
1728500000,-10.459443,-177.08714,
1733000000,-10.431174,-178.2547,
1737500000,-10.25994,-179.74754,
1742000000,-10.16336,178.45319,
1746500000,-10.08074,177.17688,
1751000000,-9.8689623,175.61662,
1755500000,-9.7853928,173.09036,
1760000000,-9.732522,171.35158,
1764500000,-9.6343899,168.77585,
1769000000,-9.6499481,166.17307,
1773500000,-9.6448498,164.25211,
1778000000,-9.5545387,161.74129,
1782500000,-9.5534668,158.42569,
1787000000,-9.5522585,155.74127,
1791500000,-9.4124031,152.86255,
1796000000,-9.4032698,149.16583,
1800500000,-9.383007,146.38011,
1805000000,-9.2290926,143.09846,
1809500000,-9.2110691,139.26552,
1814000000,-9.2220345,136.33374,
1818500000,-9.0911064,133.19327,
1823000000,-9.022789,129.53345,
1827500000,-9.0372381,126.5685,
1832000000,-8.9434385,123.38737,
1836500000,-8.9105558,119.46866,
1841000000,-8.9829712,116.3602,
1845500000,-8.9259815,112.72584,
1850000000,-8.9794817,108.59653,
1854500000,-9.125782,104.7129,
1859000000,-9.2054911,101.06047,
1863500000,-9.2895994,96.165871,
1868000000,-9.5163183,91.737755,
1872500000,-9.6119184,87.210823,
1877000000,-9.7382479,82.057381,
1881500000,-9.9219952,76.788368,
1886000000,-10.056274,71.726532,
1890500000,-10.131309,66.021721,
1895000000,-10.279439,60.656036,
1899500000,-10.361816,55.245079,
1904000000,-10.443077,49.983028,
1908500000,-10.563907,44.542416,
1913000000,-10.660774,39.258663,
1917500000,-10.751004,34.218887,
1922000000,-10.845174,28.596453,
1926500000,-10.996546,22.826616,
1931000000,-11.149331,17.162703,
1935500000,-11.309084,11.664776,
1940000000,-11.451588,5.2000833,
1944500000,-11.675999,-1.0907731,
1949000000,-11.808125,-7.3743019,
1953500000,-11.846354,-14.868021,
1958000000,-12.018683,-22.295547,
1962500000,-12.093713,-29.087856,
1967000000,-12.088243,-36.991596,
1971500000,-12.222247,-44.240742,
1976000000,-12.241232,-50.051655,
1980500000,-12.093615,-56.189999,
1985000000,-12.053928,-62.710678,
1989500000,-11.98487,-67.844177,
1994000000,-11.871659,-73.241081,
1998500000,-11.838375,-78.621834,
2003000000,-11.881717,-82.88649,
2007500000,-11.730125,-87.146606,
2012000000,-11.692942,-91.83577,
2016500000,-11.717571,-96.026588,
2021000000,-11.600874,-100.33593,
2025500000,-11.526289,-104.83986,
2030000000,-11.530497,-108.78226,
2034500000,-11.361429,-113.09103,
2039000000,-11.231663,-117.69341,
2043500000,-11.100762,-121.82473,
2048000000,-10.854766,-125.77853,
2052500000,-10.591636,-129.85524,
2057000000,-10.327163,-134.13574,
2061500000,-10.047912,-137.9987,
2066000000,-9.8048468,-142.07217,
2070500000,-9.4993839,-145.76239,
2075000000,-9.2837286,-149.47844,
2079500000,-9.0420666,-152.86571,
2084000000,-8.8041105,-156.69226,
2088500000,-8.707592,-160.26868,
2093000000,-8.5766821,-163.37184,
2097500000,-8.4124479,-166.60403,
2102000000,-8.3100891,-170.05843,
2106500000,-8.1920538,-173.26021,
2111000000,-8.0329876,-177.14009,
2115500000,-7.9890656,178.81087,
2120000000,-7.9118423,175.34479,
2124500000,-7.7424874,171.23152,
2129000000,-7.7058554,167.12341,
2133500000,-7.628849,163.47621,
2138000000,-7.4316406,159.47566,
2142500000,-7.3611746,155.05232,
2147000000,-7.2716727,151.46848,
2151500000,-7.0788255,147.90273,
2156000000,-6.9908357,143.66704,
2160500000,-6.9795604,140.32178,
2165000000,-6.7617521,136.86794,
2169500000,-6.6858082,132.78082,
2174000000,-6.7110128,129.56808,
2178500000,-6.5876408,126.05896,
2183000000,-6.5731211,121.70779,
2187500000,-6.6792388,118.22266,
2192000000,-6.6944079,114.79463,
2196500000,-6.7154965,110.31481,
2201000000,-6.8862033,106.3092,
2205500000,-6.9180741,102.83076,
2210000000,-6.9949217,97.993736,
2214500000,-7.2341533,93.961296,
2219000000,-7.2792978,89.856476,
2223500000,-7.3644104,85.250282,
2228000000,-7.4983196,81.05571,
2232500000,-7.5808768,77.128006,
2237000000,-7.6574397,72.730339,
2241500000,-7.8139296,68.571831,
2246000000,-7.8807802,64.759758,
2250500000,-7.9731297,60.438984,
2255000000,-8.1846142,56.580353,
2259500000,-8.3611479,53.031696,
2264000000,-8.5418882,48.845119,
2268500000,-8.7816401,44.986576,
2273000000,-9.0700359,41.472416,
2277500000,-9.3103056,37.461468,
2282000000,-9.6370039,32.97739,
2286500000,-9.9857311,28.599989,
2291000000,-10.341698,23.936171,
2295500000,-10.777881,18.890648,
2300000000,-11.150109,13.522501,
2304500000,-11.590989,8.2641907,
2309000000,-12.011216,2.6901188,
2313500000,-12.491086,-2.6652429,
2318000000,-12.838816,-7.4820461,
2322500000,-13.13998,-12.826993,
2327000000,-13.353802,-18.726486,
2331500000,-13.706365,-24.770819,
2336000000,-13.893744,-31.340672,
2340500000,-14.292395,-38.803749,
2345000000,-14.978634,-46.168076,
2349500000,-15.624656,-52.895763,
2354000000,-16.291887,-60.639008,
2358500000,-17.10582,-68.490997,
2363000000,-17.931099,-76.202003,
2367500000,-18.57773,-86.149971,
2372000000,-19.142344,-98.132225,
2376500000,-19.665131,-111.08377,
2381000000,-19.745558,-124.87951,
2385500000,-19.717728,-139.25705,
2390000000,-19.323782,-153.84381,
2394500000,-18.877396,-165.13474,
2399000000,-18.35927,-175.25307,
2403500000,-17.940094,174.91537,
2408000000,-17.469355,167.14711,
2412500000,-16.994411,159.36522,
2417000000,-16.559448,152.36795,
2421500000,-16.265522,144.85478,
2426000000,-16.039856,137.85329,
2430500000,-15.729124,130.12288,
2435000000,-15.566833,122.25812,
2439500000,-15.485056,114.59896,
2444000000,-15.269717,108.11631,
2448500000,-15.021817,100.44845,
2453000000,-14.881148,93.602547,
2457500000,-14.582534,88.103104,
2462000000,-14.320674,81.575134,
2466500000,-14.112782,76.118591,
2471000000,-13.903053,71.80838,
2475500000,-13.638316,66.353828,
2480000000,-13.498693,61.314594,
2484500000,-13.393052,56.869091,
2489000000,-13.341403,51.709145,
2493500000,-13.434414,46.915131,
2498000000,-13.589274,42.671928,
2502500000,-13.746441,38.29546,
2507000000,-13.872642,32.956997,
2511500000,-14.115877,27.80615,
2516000000,-14.355942,22.291578,
2520500000,-14.583571,16.683376,
2525000000,-14.743568,11.131413,
2529500000,-14.852724,4.4649858,
2534000000,-15.023935,-2.6217787,
2538500000,-15.182169,-9.7235851,
2543000000,-15.460142,-16.816687,
2547500000,-15.710328,-22.685637,
2552000000,-15.939641,-28.904259,
2556500000,-16.187683,-33.923222,
2561000000,-16.456137,-38.323792,
2565500000,-16.679651,-43.740932,
2570000000,-17.117594,-48.85611,
2574500000,-17.576767,-53.204212,
2579000000,-17.840219,-57.96302,
2583500000,-18.338352,-64.806267,
2588000000,-18.830252,-71.343483,
2592500000,-19.283257,-79.370621,
2597000000,-19.871256,-89.644867,
2601500000,-20.386415,-100.48533,
2606000000,-20.765289,-110.27683,
2610500000,-21.026905,-122.08733,
2615000000,-21.154289,-132.73355,
2619500000,-20.881327,-141.13692,
2624000000,-20.550098,-149.77238,
2628500000,-20.234373,-157.52419,
2633000000,-19.968962,-164.46907,
2637500000,-19.678829,-170.24356,
2642000000,-19.347475,-176.88338,
2646500000,-19.105299,176.60408,
2651000000,-19.077238,169.87848,
2655500000,-18.931541,163.50644,
2660000000,-19.004179,156.53319,
2664500000,-18.971018,151.05991,
2669000000,-18.610067,144.77031,
2673500000,-18.152678,137.22493,
2678000000,-17.7715,129.62271,
2682500000,-17.273663,122.18159,
2687000000,-16.826807,114.51996,
2691500000,-16.608992,108.55309,
2696000000,-16.214523,103.64766,
2700500000,-15.758534,98.449318,
2705000000,-15.511395,93.791397,
2709500000,-15.217726,90.637962,
2714000000,-14.856849,86.375824,
2718500000,-14.707522,82.713371,
2723000000,-14.55644,79.020393,
2727500000,-14.348762,75.090782,
2732000000,-14.331465,70.825302,
2736500000,-14.314419,67.152969,
2741000000,-14.245924,62.892914,
2745500000,-14.339784,57.863499,
2750000000,-14.399204,53.112816,
2754500000,-14.379949,48.845268,
2759000000,-14.414957,43.563377,
2763500000,-14.377543,38.325336,
2768000000,-14.345293,33.795223,
2772500000,-14.280556,28.501989,
2777000000,-14.227805,24.401739,
2781500000,-14.14404,20.63242,
2786000000,-14.018383,16.473082,
2790500000,-13.925015,13.156232,
2795000000,-13.88377,9.9801788,
2799500000,-13.844666,6.9692912,
2804000000,-13.884214,4.1120048,
2808500000,-13.924641,0.99276483,
2813000000,-14.079044,-1.8895456,
2817500000,-14.202703,-5.0288367,
2822000000,-14.376749,-8.8071136,
2826500000,-14.677298,-11.906381,
2831000000,-14.870213,-15.376376,
2835500000,-15.177715,-19.569057,
2840000000,-15.419037,-23.483114,
2844500000,-15.644607,-27.441389,
2849000000,-15.890061,-32.383247,
2853500000,-16.024418,-36.057076,
2858000000,-16.142227,-40.63689,
2862500000,-16.283199,-44.492256,
2867000000,-16.319441,-47.539707,
2871500000,-16.247454,-50.773685,
2876000000,-16.207386,-54.008968,
2880500000,-16.280304,-56.839119,
2885000000,-16.193373,-59.178329,
2889500000,-16.240992,-61.798473,
2894000000,-16.355862,-63.825405,
2898500000,-16.365952,-66.279556,
2903000000,-16.585608,-69.110413,
2907500000,-16.83247,-71.072296,
2912000000,-16.98786,-74.415184,
2916500000,-17.360853,-78.439957,
2921000000,-17.654898,-81.130432,
2925500000,-17.881144,-84.664856,
2930000000,-18.087997,-90.064011,
2934500000,-18.429295,-93.766853,
2939000000,-18.420723,-98.876419,
2943500000,-18.501835,-104.21613,
2948000000,-18.487122,-110.01987,
2952500000,-18.30382,-115.04439,
2957000000,-18.190907,-120.6726,
2961500000,-18.010975,-125.27626,
2966000000,-17.795677,-129.39009,
2970500000,-17.705812,-134.98659,
2975000000,-17.710777,-138.96063,
2979500000,-17.730732,-142.48221,
2984000000,-17.806143,-146.54494,
2988500000,-17.989798,-150.48978,
2993000000,-18.19516,-153.77994,
2997500000,-18.387848,-158.065,
3002000000,-18.635984,-162.89153,
3006500000,-18.889681,-168.42314,
3011000000,-19.083532,-174.58601,
3015500000,-19.386795,177.82967,
3020000000,-19.589693,170.79747,
3024500000,-19.534672,163.68867,
3029000000,-19.6227,156.30365,
3033500000,-19.433357,149.72279,
3038000000,-19.325583,143.78275,
3042500000,-19.125757,138.03461,
3047000000,-18.921267,133.03722,
3051500000,-18.706844,129.64774,
3056000000,-18.56381,125.21293,
3060500000,-18.481102,121.44037,
3065000000,-18.401842,117.92759,
3069500000,-18.39381,113.52193,
3074000000,-18.633692,108.25443,
3078500000,-18.92779,103.72269,
3083000000,-19.068169,99.120689,
3087500000,-19.593391,93.346756,
