!CSV A.01.01
!Agilent Technologies,E8361C,US49010233,A.09.22.11
!Agilent E8361C: A.09.22.11
!Date: Wednesday, September 28, 2022 13:31:06
!Source: Standard

BEGIN CH1_DATA
Freq(Hz),S12(DB),S12(DEG)
500000000,-65.515526,33.777649
504500000,-76.529961,118.91932
509000000,-67.96492,107.07423
513500000,-72.068893,40.125336
518000000,-67.442764,-16.105947
522500000,-75.004311,-57.732182
527000000,-69.248413,105.74684
531500000,-75.181137,-45.983093
536000000,-61.935699,-86.701447
540500000,-70.976494,17.492846
545000000,-70.896111,140.86769
549500000,-77.096703,170.61879
554000000,-74.379684,-11.969565
558500000,-65.237404,-79.498772
563000000,-73.2565,147.7193
567500000,-72.493034,36.458183
572000000,-74.647949,-73.801941
576500000,-76.662384,179.47214
581000000,-69.326927,-75.056816
585500000,-70.64283,-17.456926
590000000,-72.405312,-116.63713
594500000,-70.958527,119.02048
599000000,-69.723305,14.828988
603500000,-74.908714,-95.781059
608000000,-72.867561,163.17862
612500000,-63.981457,61.14225
617000000,-69.411552,-6.5213542
621500000,-64.504471,17.873569
626000000,-70.068672,40.792686
630500000,-68.878128,-128.85138
635000000,-65.229477,-69.474388
639500000,-67.213913,-100.46622
644000000,-66.702629,38.788605
648500000,-82.823082,-57.072193
653000000,-66.403366,139.6385
657500000,-70.027893,175.72874
662000000,-68.526688,132.8671
666500000,-68.531898,-22.471725
671000000,-78.428688,-43.408108
675500000,-67.577881,172.43755
680000000,-66.074394,17.188181
684500000,-82.803558,158.33495
689000000,-71.164085,125.68311
693500000,-74.788521,-128.283
698000000,-74.308357,117.45169
702500000,-67.365181,177.39612
707000000,-80.401917,-95.571533
711500000,-69.866821,135.24509
716000000,-67.072456,-139.80119
720500000,-66.643158,-84.50695
725000000,-73.365486,91.826233
729500000,-71.734489,13.202221
734000000,-70.837227,-64.950722
738500000,-82.798805,62.096127
743000000,-72.980438,-36.561287
747500000,-69.020348,-70.327995
752000000,-69.250542,0.032092012
756500000,-73.239479,108.28151
761000000,-67.08036,74.511276
765500000,-69.422279,28.805134
770000000,-71.260124,-78.616814
774500000,-69.589966,-91.945313
779000000,-70.350883,-66.973007
783500000,-65.090591,-16.799335
788000000,-69.376953,-84.43409
792500000,-68.93306,-81.286171
797000000,-72.893433,150.24294
801500000,-81.252403,35.552258
806000000,-69.506767,152.72266
810500000,-64.872597,-111.09171
815000000,-69.861664,-21.553347
819500000,-76.039284,-106.01385
824000000,-89.423386,169.72105
828500000,-72.450905,164.71078
833000000,-87.73555,7.0478177
837500000,-80.662514,-13.946336
842000000,-74.398827,-108.35954
846500000,-70.382286,158.30186
851000000,-65.070129,-172.09293
855500000,-71.95639,-174.86383
860000000,-64.953377,169.92688
864500000,-65.703789,-148.75781
869000000,-64.966499,-143.16483
873500000,-64.257042,-119.95147
878000000,-63.83754,-160.04228
882500000,-63.581169,173.11507
887000000,-66.705742,158.75027
891500000,-66.206947,-171.21753
896000000,-62.495068,-174.24655
900500000,-68.362709,132.07582
905000000,-70.598915,-167.28506
909500000,-66.607063,98.333328
914000000,-62.152954,108.56984
918500000,-63.37085,113.23869
923000000,-61.089943,153.95749
927500000,-63.704376,-171.60739
932000000,-56.820274,116.65489
936500000,-60.635166,123.35387
941000000,-63.571041,107.33272
945500000,-62.767551,103.62591
950000000,-59.362503,102.18036
954500000,-58.022316,106.11304
959000000,-60.254833,117.92307
963500000,-56.030483,80.364967
968000000,-56.641422,90.147209
972500000,-55.345005,74.407532
977000000,-57.149712,79.102112
981500000,-57.190041,81.241539
986000000,-53.455677,87.53492
990500000,-53.612617,80.205559
995000000,-52.357769,67.719818
999500000,-50.523724,52.572113
1004000000,-48.568562,46.865997
1008500000,-47.694611,40.230625
1013000000,-45.815788,31.122709
1017500000,-45.790585,12.788071
1022000000,-46.237736,-5.5281415
1026500000,-45.051064,-6.0768743
1031000000,-44.88546,-13.132029
1035500000,-44.252563,-14.957677
1040000000,-42.39175,-22.474155
1044500000,-40.946552,-33.536903
1049000000,-38.993443,-46.475422
1053500000,-38.023712,-61.954952
1058000000,-37.592815,-75.570007
1062500000,-36.860878,-89.380188
1067000000,-36.266991,-101.59858
1071500000,-36.026371,-113.27137
1076000000,-35.134537,-125.94093
1080500000,-34.171661,-143.38495
1085000000,-34.228287,-164.25731
1089500000,-35.137012,179.69254
1094000000,-35.851185,170.1097
1098500000,-36.2355,158.08601
1103000000,-36.320278,146.84451
1107500000,-36.907448,135.03996
1112000000,-37.438812,125.09435
1116500000,-37.925732,112.55058
1121000000,-38.833481,108.40004
1125500000,-39.181816,101.08717
1130000000,-38.794899,95.683258
1134500000,-39.211372,84.883751
1139000000,-39.377613,84.642036
1143500000,-38.621902,70.685143
1148000000,-39.303349,58.492306
1152500000,-39.777111,49.993149
1157000000,-40.213196,41.312683
1161500000,-40.710243,35.01149
1166000000,-41.134285,33.268143
1170500000,-40.481232,30.132654
1175000000,-39.685509,19.337879
1179500000,-39.08416,11.590814
1184000000,-39.34029,-1.9385556
1188500000,-39.385513,-17.604324
1193000000,-40.508335,-28.581059
1197500000,-41.320751,-35.268593
1202000000,-42.804852,-41.70359
1206500000,-43.357529,-42.258488
1211000000,-43.729305,-46.243122
1215500000,-43.369091,-47.807014
1220000000,-42.998333,-56.986294
1224500000,-42.729198,-65.680832
1229000000,-43.519386,-79.18795
1233500000,-44.420853,-84.082939
1238000000,-45.566673,-92.801727
1242500000,-45.416763,-94.765907
1247000000,-46.381931,-95.66275
1251500000,-46.345665,-99.046143
1256000000,-46.506737,-99.840691
1260500000,-45.444992,-109.26527
1265000000,-44.839203,-109.37974
1269500000,-44.505096,-120.44147
1274000000,-44.607239,-138.87854
1278500000,-46.24205,-144.40808
1283000000,-47.730576,-147.98923
1287500000,-47.749065,-156.22459
1292000000,-50.913853,-145.25314
1296500000,-50.013565,-136.97667
1301000000,-49.998512,-130.13618
1305500000,-47.084106,-131.36354
1310000000,-45.985977,-137.5249
1314500000,-44.098961,-153.93692
1319000000,-44.258789,-164.33722
1323500000,-44.63863,-179.06255
1328000000,-46.1717,-176.37781
1332500000,-46.293968,-177.38773
1337000000,-45.805557,177.85426
1341500000,-45.420017,179.03229
1346000000,-44.497032,-178.38144
1350500000,-43.316589,175.49623
1355000000,-41.939373,165.69839
1359500000,-41.394592,150.07726
1364000000,-41.688839,140.61139
1368500000,-41.359131,132.17958
1373000000,-41.765804,118.95227
1377500000,-42.313793,119.0322
1382000000,-41.972733,113.25735
1386500000,-42.216587,109.95141
1391000000,-41.272617,103.55151
1395500000,-40.400002,96.571617
1400000000,-39.789581,84.439873
1404500000,-39.804089,69.984451
1409000000,-40.222977,59.417614
1413500000,-40.75898,51.091339
1418000000,-40.941551,48.623535
1422500000,-41.312794,45.032894
1427000000,-41.206146,38.725174
1431500000,-40.980953,32.104473
1436000000,-40.60532,22.903641
1440500000,-40.62405,19.898081
1445000000,-39.854404,13.127615
1449500000,-39.456753,3.7579241
1454000000,-39.690754,-1.508654
1458500000,-40.235626,-11.437542
1463000000,-40.628101,-18.305935
1467500000,-40.716713,-22.662457
1472000000,-40.354958,-22.768824
1476500000,-40.030872,-28.942497
1481000000,-39.013748,-37.964989
1485500000,-38.899498,-49.137688
1490000000,-39.011471,-59.934303
1494500000,-39.717506,-71.751221
1499000000,-40.349915,-78.66452
1503500000,-40.636513,-86.663208
1508000000,-41.312649,-88.693199
1512500000,-41.739895,-93.904457
1517000000,-41.502754,-95.973351
1521500000,-41.088833,-98.765656
1526000000,-40.095131,-105.46302
1530500000,-39.724392,-115.13134
1535000000,-39.949215,-127.19407
1539500000,-39.755543,-137.28502
1544000000,-40.231037,-144.7769
1548500000,-40.795025,-151.12967
1553000000,-41.394176,-155.41457
1557500000,-41.163002,-162.2453
1562000000,-41.08889,-168.07303
1566500000,-40.70433,-174.73303
1571000000,-40.386597,177.13986
1575500000,-40.446465,165.45107
1580000000,-40.389629,159.72926
1584500000,-40.074425,152.05177
1589000000,-40.88427,142.8551
1593500000,-41.052139,134.26779
1598000000,-41.465614,130.27718
1602500000,-41.174633,121.71564
1607000000,-41.9062,111.93703
1611500000,-42.232796,102.00107
1616000000,-42.683895,93.377861
1620500000,-43.144291,85.70742
1625000000,-43.681641,74.454811
1629500000,-45.376415,61.524029
1634000000,-46.40414,53.511101
1638500000,-47.090641,45.997272
1643000000,-49.118145,51.737095
1647500000,-52.006432,46.735569
1652000000,-52.368916,45.989014
1656500000,-52.991199,57.723591
1661000000,-53.148865,60.378311
1665500000,-52.066288,65.767036
1670000000,-51.286766,71.035843
1674500000,-50.269226,64.167717
1679000000,-50.653629,46.637032
1683500000,-50.199524,46.540024
1688000000,-50.569782,48.745148
1692500000,-50.468887,44.955406
1697000000,-51.809338,44.065098
1701500000,-50.714905,40.594692
1706000000,-49.796101,52.505074
1710500000,-49.8606,36.560524
1715000000,-49.142021,35.166344
1719500000,-47.719349,34.705551
1724000000,-48.586998,25.128445
1728500000,-48.034382,21.87472
1733000000,-48.198574,15.116353
1737500000,-46.896072,18.838495
1742000000,-46.149506,5.7613406
1746500000,-45.521378,-0.95729202
1751000000,-45.069199,-7.7074151
1755500000,-44.690998,-17.36083
1760000000,-44.050964,-28.426817
1764500000,-44.214348,-28.862328
1769000000,-44.830158,-46.991016
1773500000,-46.31881,-56.383274
1778000000,-46.42374,-49.706551
1782500000,-46.479652,-52.528187
1787000000,-45.556984,-58.779495
1791500000,-44.871895,-56.06855
1796000000,-44.712383,-68.297493
1800500000,-43.965488,-74.610771
1805000000,-43.524212,-82.065361
1809500000,-44.493813,-86.472412
1814000000,-44.782948,-96.550194
1818500000,-44.898006,-100.63759
1823000000,-45.105038,-101.50854
1827500000,-44.181824,-102.33151
1832000000,-43.621983,-108.66675
1836500000,-42.866512,-116.58311
1841000000,-42.196892,-125.49575
1845500000,-42.379108,-135.62669
1850000000,-42.710915,-142.22659
1854500000,-42.66003,-145.9111
1859000000,-43.312359,-152.73792
1863500000,-43.429752,-157.61815
1868000000,-42.8326,-160.39561
1872500000,-42.871975,-165.23645
1877000000,-42.092548,-173.81468
1881500000,-41.099548,176.25291
1886000000,-41.21965,168.50865
1890500000,-41.548485,159.90781
1895000000,-41.638885,151.83199
1899500000,-42.509872,148.45439
1904000000,-42.103313,142.77106
1908500000,-41.638695,138.51189
1913000000,-41.226463,128.24097
1917500000,-41.199322,126.29282
1922000000,-41.067413,117.16815
1926500000,-40.716557,103.16164
1931000000,-42.582497,97.142265
1935500000,-41.871311,90.360428
1940000000,-42.60815,85.704025
1944500000,-42.69054,83.756104
1949000000,-42.592339,77.693329
1953500000,-41.631721,74.650764
1958000000,-41.642509,64.028313
1962500000,-41.338112,59.250969
1967000000,-42.024784,44.398869
1971500000,-42.315037,44.06316
1976000000,-42.267559,41.536507
1980500000,-42.070534,33.982185
1985000000,-41.785355,28.376245
1989500000,-41.465019,23.608973
1994000000,-41.32444,15.882851
1998500000,-41.085434,2.2512953
2003000000,-41.842995,-4.7592587
2007500000,-41.692062,-11.62175
2012000000,-42.538769,-17.092783
2016500000,-42.984299,-17.48735
2021000000,-42.441719,-27.242744
2025500000,-42.485508,-28.244007
2030000000,-42.034851,-33.748306
2034500000,-41.563946,-41.296455
2039000000,-41.890347,-52.001247
2043500000,-41.725643,-59.504513
2048000000,-42.24255,-66.239723
2052500000,-43.129547,-75.986076
2057000000,-43.089771,-81.933128
2061500000,-44.014847,-84.070747
2066000000,-44.30975,-85.675507
2070500000,-44.061214,-88.796501
2075000000,-43.092892,-101.06068
2079500000,-43.039101,-104.82785
2084000000,-43.05545,-117.4231
2088500000,-43.717155,-120.63248
2093000000,-44.833866,-125.73289
2097500000,-44.667152,-132.78111
2102000000,-45.878471,-132.84904
2106500000,-44.646309,-137.46188
2111000000,-44.901146,-142.28802
2115500000,-44.57159,-143.87064
2120000000,-43.391457,-152.39833
2124500000,-43.414417,-163.66705
2129000000,-45.443169,-169.72682
2133500000,-43.913399,-178.38396
2138000000,-44.636497,172.45503
2142500000,-45.438248,174.11516
2147000000,-45.114361,164.29405
2151500000,-45.128105,165.15619
2156000000,-44.134136,161.93532
2160500000,-43.483765,150.21288
2165000000,-43.96405,138.91745
2169500000,-45.402966,137.17946
2174000000,-45.869553,121.29199
2178500000,-46.179699,121.97113
2183000000,-47.027458,113.05208
2187500000,-46.280499,120.92958
2192000000,-46.079678,112.5806
2196500000,-45.236828,105.48482
2201000000,-45.589016,105.03667
2205500000,-45.399582,89.543816
2210000000,-45.786541,88.42688
2214500000,-46.766163,74.275925
2219000000,-46.40691,65.322784
2223500000,-47.914322,70.619728
2228000000,-48.342964,69.871048
2232500000,-47.875183,60.076164
2237000000,-46.069473,64.622978
2241500000,-46.887051,51.027195
2246000000,-45.170067,44.923847
2250500000,-46.542164,33.041637
2255000000,-48.917133,23.242527
2259500000,-47.127586,20.299446
2264000000,-48.265617,18.895702
2268500000,-47.131161,19.613323
2273000000,-47.836033,16.016027
2277500000,-47.079277,7.3447289
2282000000,-46.666904,7.0699759
2286500000,-47.003693,-0.64036494
2291000000,-47.907585,-19.638447
2295500000,-46.729477,-23.947536
2300000000,-48.383926,-29.412861
2304500000,-49.358952,-29.490356
2309000000,-48.302814,-32.937126
2313500000,-46.651157,-37.103939
2318000000,-46.877831,-47.744347
2322500000,-47.323601,-52.177422
2327000000,-46.707417,-69.791855
2331500000,-48.029449,-68.814201
2336000000,-48.537453,-75.543228
2340500000,-48.969563,-76.029305
2345000000,-49.280701,-82.624504
2349500000,-48.481457,-88.289314
2354000000,-48.726177,-96.093758
2358500000,-49.523273,-112.37527
2363000000,-48.787537,-108.32793
2367500000,-48.675743,-121.18996
2372000000,-50.49535,-132.45425
2376500000,-50.192162,-131.18329
2381000000,-50.593082,-145.10913
2385500000,-49.867149,-144.50414
2390000000,-50.858696,-144.52188
2394500000,-50.389442,-151.17989
2399000000,-50.079319,-168.21994
2403500000,-51.202621,-175.39006
2408000000,-50.403999,-172.7235
2412500000,-51.974022,-177.54199
2417000000,-53.161003,163.12802
2421500000,-54.179405,158.41367
2426000000,-54.291931,158.38335
2430500000,-56.137489,170.64983
2435000000,-57.153885,171.28333
2439500000,-57.652676,163.31638
2444000000,-56.237946,154.47112
2448500000,-55.768234,160.61536
2453000000,-58.447033,141.59204
2457500000,-55.768948,171.99431
2462000000,-57.130157,135.31932
2466500000,-54.36401,134.01511
2471000000,-58.345074,142.80251
2475500000,-59.73138,130.79288
2480000000,-55.988548,134.08621
2484500000,-58.810959,129.22131
2489000000,-57.327591,139.21802
2493500000,-55.984127,143.24536
2498000000,-57.80862,131.334
2502500000,-60.373386,110.70124
2507000000,-55.483276,128.57089
2511500000,-56.962437,113.63181
2516000000,-57.757877,102.00045
2520500000,-55.999817,107.58835
2525000000,-54.58139,88.279564
2529500000,-55.219387,76.608482
2534000000,-55.054073,85.66993
2538500000,-52.705669,94.013908
2543000000,-52.204052,86.169182
2547500000,-55.056137,90.843445
2552000000,-53.112328,83.980652
2556500000,-53.747478,76.525993
2561000000,-51.889626,65.859543
2565500000,-52.704567,59.322208
2570000000,-52.893497,55.329437
2574500000,-53.948177,44.309464
2579000000,-53.746613,53.691738
2583500000,-54.325253,47.399452
2588000000,-53.38821,32.692596
2592500000,-53.37402,22.102625
2597000000,-54.512268,17.776567
2601500000,-52.215328,8.241478
2606000000,-52.221001,16.687748
2610500000,-50.899952,-1.4954464
2615000000,-51.416965,10.98801
2619500000,-51.444099,0.87930465
2624000000,-50.500957,-7.1100683
2628500000,-49.754139,-8.0392084
2633000000,-50.278656,-12.201345
2637500000,-54.491711,-33.465866
2642000000,-50.750507,-30.71464
2646500000,-49.456669,-43.81525
2651000000,-50.087482,-34.474251
2655500000,-49.981476,-50.577763
2660000000,-48.849689,-56.369789
2664500000,-50.212402,-66.994789
2669000000,-49.418556,-74.232727
2673500000,-50.307678,-76.176804
2678000000,-51.116447,-87.770439
2682500000,-49.888565,-83.782219
2687000000,-52.400482,-94.670525
2691500000,-51.527821,-102.7677
2696000000,-51.069027,-116.44277
2700500000,-51.033615,-110.79462
2705000000,-50.273357,-115.79008
2709500000,-50.411274,-115.12825
2714000000,-50.743767,-124.62215
2718500000,-52.201382,-126.17661
2723000000,-51.661976,-128.49542
2727500000,-49.910141,-135.10965
2732000000,-50.698513,-150.05923
2736500000,-51.242916,-152.08598
2741000000,-50.408237,-157.49875
2745500000,-50.299854,-174.57858
2750000000,-52.198059,179.69965
2754500000,-49.657185,-168.77107
2759000000,-53.017159,163.06369
2763500000,-51.562717,163.51015
2768000000,-50.384018,169.62663
2772500000,-48.847355,152.26674
2777000000,-51.282539,158.95375
2781500000,-49.494205,149.37912
2786000000,-49.296593,135.35699
2790500000,-49.743095,140.61613
2795000000,-48.153034,124.21346
2799500000,-50.30962,123.03772
2804000000,-51.34861,110.55981
2808500000,-49.301395,110.41829
2813000000,-49.354408,111.37263
2817500000,-48.407246,105.65399
2822000000,-50.068085,94.977592
2826500000,-48.516682,87.402939
2831000000,-48.011787,77.969734
2835500000,-49.09375,70.201874
2840000000,-48.663403,70.768929
2844500000,-50.772991,51.342705
2849000000,-50.740112,54.444016
2853500000,-50.510498,51.118988
2858000000,-50.292557,37.732597
2862500000,-48.889008,39.343666
2867000000,-50.079823,30.203691
2871500000,-52.880478,11.115856
2876000000,-49.275005,12.741339
2880500000,-50.86198,-4.0674944
2885000000,-50.648487,-11.051584
2889500000,-50.605026,-6.8172894
2894000000,-50.852005,-11.548205
2898500000,-49.492054,-15.268226
2903000000,-49.655487,-18.729223
2907500000,-51.716652,-25.365772
2912000000,-51.05859,-43.677128
2916500000,-53.460335,-55.829308
2921000000,-53.887993,-49.390446
2925500000,-55.38739,-38.07497
2930000000,-51.667465,-53.061443
2934500000,-54.767345,-52.341412
2939000000,-51.441814,-69.602562
2943500000,-53.607571,-64.902168
2948000000,-52.677341,-64.509377
2952500000,-51.155621,-84.685501
2957000000,-52.630585,-86.654167
2961500000,-52.614944,-87.294624
2966000000,-51.013859,-102.99345
2970500000,-53.268764,-123.55119
2975000000,-51.730572,-109.63987
2979500000,-52.700134,-119.83327
2984000000,-53.962257,-116.79726
2988500000,-52.471497,-115.2516
2993000000,-52.268833,-134.84015
2997500000,-54.523201,-131.23383
3002000000,-51.977695,-145.9267
3006500000,-53.512589,-144.69936
3011000000,-52.607815,-155.24603
3015500000,-51.568928,-163.07059
3020000000,-52.122494,-168.3783
3024500000,-54.721111,-164.84274
3029000000,-54.353191,-164.83923
3033500000,-52.617275,-173.7451
3038000000,-52.170155,173.06299
3042500000,-53.195404,150.49846
3047000000,-53.705444,158.44353
3051500000,-54.929806,165.17313
3056000000,-53.937363,150.65848
3060500000,-56.441242,149.40909
3065000000,-53.804615,145.22336
3069500000,-53.15694,125.00697
3074000000,-54.249836,130.86903
3078500000,-56.361752,137.32515
3083000000,-56.21022,112.62434
3087500000,-54.700878,113.12172
3092000000,-54.701382,114.40115
3096500000,-55.189304,92.955322
3101000000,-55.893688,102.77339
3105500000,-53.297173,87.672356
3110000000,-53.079868,82.991699
3114500000,-52.52549,81.56649
3119000000,-55.79266,67.695282
3123500000,-53.501213,62.458923
3128000000,-55.88665,50.242706
3132500000,-53.571014,45.608978
3137000000,-59.167503,27.04635
3141500000,-53.869141,35.240829
3146000000,-56.917492,50.90826
3150500000,-54.888783,19.381027
3155000000,-52.93026,31.273798
3159500000,-54.276207,7.9005651
3164000000,-52.760628,17.420887
3168500000,-55.526833,3.0733438
3173000000,-53.957157,-4.8857055
3177500000,-57.277752,-50.615124
3182000000,-55.577976,-9.5182266
3186500000,-55.725693,-12.79404
