!CSV A.01.01
!Agilent Technologies,E8361C,US49010233,A.09.22.11
!Agilent E8361C: A.09.22.11
!Date: Wednesday, September 28, 2022 13:31:27
!Source: Standard

BEGIN CH1_DATA
Freq(Hz),S11(DB),S11(DEG)
500000000,-0.27641526,165.71144
504500000,-0.29217333,164.27785
509000000,-0.26595637,162.77936
513500000,-0.29652306,161.26207
518000000,-0.30037516,159.63014
522500000,-0.29942828,158.04063
527000000,-0.29832563,156.43282
531500000,-0.29072142,155.15872
536000000,-0.26735237,153.55098
540500000,-0.31652227,151.91394
545000000,-0.28925434,150.45448
549500000,-0.29182386,148.89635
554000000,-0.29096618,147.5079
558500000,-0.31591803,145.77902
563000000,-0.31732622,144.2132
567500000,-0.31383905,142.72469
572000000,-0.34179455,140.93889
576500000,-0.34461492,139.43802
581000000,-0.30260336,138.02385
585500000,-0.29362464,136.3441
590000000,-0.33267266,134.76451
594500000,-0.3422997,133.3206
599000000,-0.30876383,131.65495
603500000,-0.32233804,130.2588
608000000,-0.33720315,128.98932
612500000,-0.30801627,127.56798
617000000,-0.35458633,126.08533
621500000,-0.3098447,124.65597
626000000,-0.35896599,123.08189
630500000,-0.33483392,121.76475
635000000,-0.3503392,120.28869
639500000,-0.31597778,118.75104
644000000,-0.35076272,117.60725
648500000,-0.37524489,115.93967
653000000,-0.36197132,114.33494
657500000,-0.36632627,112.79765
662000000,-0.36593148,111.49745
666500000,-0.3727302,109.90292
671000000,-0.38154325,108.2791
675500000,-0.36524615,106.62997
680000000,-0.40621153,105.27147
684500000,-0.36745012,103.85839
689000000,-0.3657276,102.39481
693500000,-0.39312255,100.71335
698000000,-0.37328431,99.318886
702500000,-0.37317216,98.00563
707000000,-0.36120674,96.371918
711500000,-0.35699663,95.01918
716000000,-0.37300974,93.681488
720500000,-0.37864822,92.17189
725000000,-0.38394752,90.7957
729500000,-0.37244624,89.331917
734000000,-0.38925451,88.07679
738500000,-0.38204977,86.585327
743000000,-0.37680727,85.259804
747500000,-0.37315625,83.925621
752000000,-0.40681314,82.404442
756500000,-0.41949588,81.001801
761000000,-0.40604773,79.552284
765500000,-0.41898993,77.923157
770000000,-0.42245138,76.649391
774500000,-0.45769286,74.862411
779000000,-0.45170784,73.269905
783500000,-0.411062,72.110352
788000000,-0.40775016,70.385506
792500000,-0.44675109,68.902435
797000000,-0.40187237,67.454384
801500000,-0.41860074,65.950974
806000000,-0.44919494,64.881691
810500000,-0.40082413,63.276848
815000000,-0.45086232,61.769875
819500000,-0.45533758,60.433064
824000000,-0.42752218,59.132595
828500000,-0.40283573,57.822113
833000000,-0.43026006,56.405399
837500000,-0.42700049,55.076889
842000000,-0.42448458,53.628105
846500000,-0.46777177,52.255062
851000000,-0.44749826,50.574024
855500000,-0.44726789,48.925774
860000000,-0.47107804,47.514603
864500000,-0.4357602,46.038685
869000000,-0.4504756,44.543747
873500000,-0.48107928,42.94421
878000000,-0.50391638,41.233185
882500000,-0.47815603,39.848057
887000000,-0.43546554,38.160412
891500000,-0.479718,36.505608
896000000,-0.45932916,35.279606
900500000,-0.46713689,33.660248
905000000,-0.47097012,32.030418
909500000,-0.46750125,30.680189
914000000,-0.48070714,29.143007
918500000,-0.48055813,27.812147
923000000,-0.47395918,26.391806
927500000,-0.48102954,24.756653
932000000,-0.51213962,23.2288
936500000,-0.48916063,21.66263
941000000,-0.49585575,20.06209
945500000,-0.53448755,18.578386
950000000,-0.51955074,16.964636
954500000,-0.50940591,15.077515
959000000,-0.54241914,13.486284
963500000,-0.53663182,11.823356
968000000,-0.53817564,9.6994858
972500000,-0.5905754,7.7496376
977000000,-0.56717718,6.0191369
981500000,-0.54022974,4.0188622
986000000,-0.6025998,2.0863469
990500000,-0.61098254,0.2049937
995000000,-0.60337752,-2.0289967
999500000,-0.67345524,-4.1515393
1004000000,-0.63720882,-5.9827685
1008500000,-0.65060109,-8.5090408
1013000000,-0.76231295,-10.721663
1017500000,-0.7931599,-13.001985
1022000000,-0.76352936,-15.529864
1026500000,-0.94667137,-18.343958
1031000000,-1.048546,-20.367493
1035500000,-1.0802827,-23.532387
1040000000,-1.3210297,-27.375629
1044500000,-1.4602708,-30.191813
1049000000,-1.6530951,-34.313305
1053500000,-2.0730639,-39.09565
1058000000,-2.5381036,-43.314842
1062500000,-3.1184449,-48.617321
1067000000,-4.0739355,-54.164486
1071500000,-5.4058781,-58.951992
1076000000,-7.2044902,-62.428543
1080500000,-9.7908411,-62.240646
1085000000,-13.023416,-50.194038
1089500000,-14.46649,-19.596189
1094000000,-12.034744,4.1587262
1098500000,-9.2807207,10.420073
1103000000,-7.3375654,9.4927874
1107500000,-6.0632524,6.7297721
1112000000,-5.1503577,3.3371992
1116500000,-4.5189953,-0.1317455
1121000000,-4.0936241,-2.8524578
1125500000,-3.64996,-5.3696384
1130000000,-3.3175952,-7.8211226
1134500000,-2.8515494,-9.6985321
1139000000,-2.4523442,-14.237141
1143500000,-2.5342474,-17.652828
1148000000,-2.5043101,-19.59359
1152500000,-2.3537798,-21.712029
1157000000,-2.2567163,-24.490419
1161500000,-2.2565432,-26.831284
1166000000,-2.1772239,-28.907806
1170500000,-2.0952868,-31.593519
1175000000,-2.1906266,-33.835434
1179500000,-2.1353083,-35.733246
1184000000,-2.1109126,-38.149235
1188500000,-2.1932309,-40.514412
1193000000,-2.1286414,-42.257484
1197500000,-2.1691165,-44.524658
1202000000,-2.2635474,-46.773869
1206500000,-2.2974992,-48.045471
1211000000,-2.3179576,-50.013088
1215500000,-2.3949697,-51.328232
1220000000,-2.3989627,-52.151962
1224500000,-2.3365767,-54.204258
1229000000,-2.4166403,-55.748123
1233500000,-2.4296346,-56.597771
1238000000,-2.3770545,-58.305058
1242500000,-2.4415998,-60.242523
1247000000,-2.4383364,-61.529419
1251500000,-2.4532461,-64.081566
1256000000,-2.5824468,-65.412399
1260500000,-2.6631808,-66.628777
1265000000,-2.6827559,-68.46283
1269500000,-2.8015337,-70.138054
1274000000,-2.8198946,-71.210121
1278500000,-2.7872841,-73.166969
1283000000,-2.8909726,-74.598351
1287500000,-2.9048355,-75.835655
1292000000,-2.8500412,-77.986275
1296500000,-2.9710035,-79.457092
1301000000,-2.9504957,-80.727005
1305500000,-2.9547625,-82.474754
1310000000,-2.9938641,-84.128777
1314500000,-2.9968588,-85.135208
1319000000,-2.9219701,-87.267792
1323500000,-2.9578416,-88.669426
1328000000,-2.9922817,-89.921043
1332500000,-2.9526377,-92.018753
1337000000,-3.0418539,-93.91333
1341500000,-3.0342629,-94.881775
1346000000,-3.0622673,-97.032143
1350500000,-3.1879916,-98.718605
1355000000,-3.2348881,-100.02712
1359500000,-3.2424421,-102.28546
1364000000,-3.3058972,-104.2774
1368500000,-3.3640666,-105.88749
1373000000,-3.3549814,-108.33003
1377500000,-3.4574018,-110.84558
1382000000,-3.539171,-112.53682
1386500000,-3.5793993,-115.08839
1391000000,-3.6731577,-117.64619
1395500000,-3.7716322,-119.54231
1400000000,-3.8758764,-121.95271
1404500000,-4.0458136,-124.61798
1409000000,-4.2337718,-126.92355
1413500000,-4.4017987,-129.32018
1418000000,-4.6975551,-131.86064
1422500000,-5.0706525,-134.0491
1427000000,-5.6337476,-135.48424
1431500000,-6.3559966,-134.9964
1436000000,-6.7837105,-129.22404
1440500000,-6.0432448,-125.15813
1445000000,-5.3987951,-127.72795
1449500000,-5.1998148,-131.16501
1454000000,-5.2198167,-134.46021
1458500000,-5.3326664,-137.06105
1463000000,-5.4275589,-139.31364
1467500000,-5.5430655,-141.50737
1472000000,-5.6675544,-143.90292
1476500000,-5.7961831,-146.0275
1481000000,-5.9059839,-148.17642
1485500000,-6.0604167,-150.68617
1490000000,-6.1642823,-152.81161
1494500000,-6.3348284,-154.98802
1499000000,-6.4264507,-156.92691
1503500000,-6.56844,-158.96339
1508000000,-6.7068515,-160.8293
1512500000,-6.8050866,-162.7236
1517000000,-6.9011497,-164.65076
1521500000,-6.9545689,-166.86986
1526000000,-7.1219306,-169.30324
1530500000,-7.291316,-171.90739
1535000000,-7.4805751,-174.44179
1539500000,-7.7527423,-177.49686
1544000000,-8.1349583,179.9913
1548500000,-8.4737101,177.39507
1553000000,-8.8487215,174.3082
1557500000,-9.3620863,171.48836
1562000000,-9.8227577,168.7213
1566500000,-10.393303,165.45067
1571000000,-11.106262,162.32507
1575500000,-11.850562,159.71547
1580000000,-12.670365,157.02881
1584500000,-13.651649,155.66284
1589000000,-14.605283,154.97165
1593500000,-15.689595,154.84814
1598000000,-16.912445,157.22359
1602500000,-17.92322,161.56671
1607000000,-18.72121,167.22911
1611500000,-19.398682,174.44919
1616000000,-19.708275,-176.50587
1620500000,-19.637138,-167.8784
1625000000,-19.24645,-159.57857
1629500000,-18.520784,-152.77921
1634000000,-17.691141,-147.85805
1638500000,-16.761234,-144.37138
1643000000,-15.979902,-142.57005
1647500000,-15.22321,-141.60667
1652000000,-14.60523,-141.39153
1656500000,-13.954476,-142.31493
1661000000,-13.423363,-143.47563
1665500000,-13.020364,-145.23283
1670000000,-12.769092,-147.29979
1674500000,-12.540664,-149.43456
1679000000,-12.332978,-151.56123
1683500000,-12.151121,-153.4355
1688000000,-11.955863,-155.90726
1692500000,-11.74169,-157.92513
1697000000,-11.583856,-160.61073
1701500000,-11.368917,-163.10533
1706000000,-11.220753,-165.89574
1710500000,-11.082814,-168.43452
1715000000,-11.015068,-170.8297
1719500000,-10.93378,-172.95284
1724000000,-10.873346,-174.496
1728500000,-10.756392,-175.87683
1733000000,-10.639568,-177.12656
1737500000,-10.449924,-178.58397
1742000000,-10.323412,179.79735
1746500000,-10.198847,178.47421
1751000000,-10.000179,176.80676
1755500000,-9.9096537,174.66869
1760000000,-9.7817373,172.83388
1764500000,-9.6887665,170.39168
1769000000,-9.6823921,167.80379
1773500000,-9.6190329,165.55754
1778000000,-9.5572405,162.77258
1782500000,-9.5788794,159.6544
1787000000,-9.5258102,157.22467
1791500000,-9.4112291,154.11099
1796000000,-9.4083261,150.722
1800500000,-9.3097992,147.87523
1805000000,-9.1620493,144.30315
1809500000,-9.1378365,140.73537
1814000000,-9.0962706,137.86255
1818500000,-8.9111319,134.3923
1823000000,-8.8537521,130.70515
1827500000,-8.8024063,127.83462
1832000000,-8.684329,123.91481
1836500000,-8.7082338,120.0267
1841000000,-8.7804489,116.83786
1845500000,-8.6856594,113.18319
1850000000,-8.7946215,108.90491
1854500000,-8.8822975,105.23152
1859000000,-8.9178619,101.28454
1863500000,-9.0372772,95.982819
1868000000,-9.2609968,91.669884
1872500000,-9.3009491,86.713692
1877000000,-9.5008478,81.228546
1881500000,-9.717309,76.082588
1886000000,-9.8240204,71.079353
1890500000,-9.9151087,65.157944
1895000000,-10.104608,59.899269
1899500000,-10.156463,54.646721
1904000000,-10.192905,48.88858
1908500000,-10.342077,43.474575
1913000000,-10.446963,38.128693
1917500000,-10.530725,32.658524
1922000000,-10.676965,26.85055
1926500000,-10.875151,21.142662
1931000000,-11.026769,15.522001
1935500000,-11.269017,9.6469145
1940000000,-11.461065,3.7253397
1944500000,-11.67357,-2.4909854
1949000000,-11.792894,-9.1108456
1953500000,-11.895083,-16.281414
1958000000,-12.029556,-23.226017
1962500000,-12.058768,-30.174355
1967000000,-12.091456,-38.055019
1971500000,-12.224178,-44.964489
1976000000,-12.220055,-51.219551
1980500000,-12.119223,-57.441883
1985000000,-12.115899,-63.406048
1989500000,-12.045197,-68.471497
1994000000,-11.906017,-73.826569
1998500000,-11.904447,-78.879776
2003000000,-11.88282,-82.84565
2007500000,-11.7066,-87.455078
2012000000,-11.699141,-92.11245
2016500000,-11.715864,-96.122841
2021000000,-11.566088,-100.58453
2025500000,-11.559211,-105.20869
2030000000,-11.574795,-108.87344
2034500000,-11.340788,-113.32648
2039000000,-11.253579,-117.85358
2043500000,-11.147132,-121.95528
2048000000,-10.846189,-126.07976
2052500000,-10.651141,-130.35776
2057000000,-10.413893,-134.08617
2061500000,-10.074073,-137.87093
2066000000,-9.8086071,-141.95131
2070500000,-9.5440683,-145.47821
2075000000,-9.256608,-149.21448
2079500000,-9.0016193,-152.8954
2084000000,-8.8238649,-156.62177
2088500000,-8.6766291,-160.03728
2093000000,-8.5295992,-163.57797
2097500000,-8.419714,-166.75644
2102000000,-8.3067913,-170.049
2106500000,-8.191288,-173.36972
2111000000,-8.0496044,-177.16884
2115500000,-7.9694405,179.15588
2120000000,-7.8638053,175.44714
2124500000,-7.7124014,171.19371
2129000000,-7.6830039,166.87581
2133500000,-7.5764189,163.14421
2138000000,-7.4357419,158.92609
2142500000,-7.3578687,154.83002
2147000000,-7.2568412,151.23412
2151500000,-7.0946326,147.3504
2156000000,-7.021873,143.40775
2160500000,-6.9785261,140.22617
2165000000,-6.7715874,136.42754
2169500000,-6.7242961,132.47945
2174000000,-6.7381773,129.30331
2178500000,-6.6064634,125.55587
2183000000,-6.6405873,121.33316
2187500000,-6.715694,118.20025
2192000000,-6.7077351,114.57844
2196500000,-6.7755079,110.04849
2201000000,-6.9200616,106.41647
2205500000,-6.9115753,102.77984
2210000000,-7.0566669,97.834282
2214500000,-7.2695193,93.941048
2219000000,-7.2793775,89.772552
2223500000,-7.4056449,84.791016
2228000000,-7.5423408,80.915352
2232500000,-7.5888157,76.808853
2237000000,-7.7064362,72.27774
2241500000,-7.854413,68.049515
2246000000,-7.9360776,64.116516
2250500000,-8.064703,59.793274
2255000000,-8.286684,55.950653
2259500000,-8.4855471,52.525616
2264000000,-8.6785755,48.49931
2268500000,-8.9424982,44.643246
2273000000,-9.2395926,41.341766
2277500000,-9.5095444,37.349289
2282000000,-9.855484,33.125683
2286500000,-10.180593,28.977648
2291000000,-10.552189,24.400583
2295500000,-10.986469,19.712484
2300000000,-11.358974,14.699384
2304500000,-11.762676,9.5668058
2309000000,-12.170274,4.453599
2313500000,-12.590253,-0.90473539
2318000000,-12.892956,-5.9852905
2322500000,-13.158088,-11.678889
2327000000,-13.416159,-17.698513
2331500000,-13.78343,-23.622314
2336000000,-14.039347,-29.996334
2340500000,-14.440137,-36.96669
2345000000,-15.047625,-43.93359
2349500000,-15.64925,-50.37674
2354000000,-16.279503,-58.039219
2358500000,-17.137272,-65.658669
2363000000,-17.874491,-72.962837
2367500000,-18.451857,-82.837379
2372000000,-19.020983,-94.544952
2376500000,-19.45998,-107.59696
2381000000,-19.596636,-121.11535
2385500000,-19.545784,-135.78433
2390000000,-19.189873,-149.67659
2394500000,-18.701963,-161.28133
2399000000,-18.051731,-172.41815
2403500000,-17.632467,177.56273
2408000000,-17.17507,168.98161
2412500000,-16.705873,161.29837
2417000000,-16.245281,153.74541
2421500000,-15.993226,146.02119
2426000000,-15.753306,139.16016
2430500000,-15.422599,131.40323
2435000000,-15.2021,123.23469
2439500000,-15.044856,115.30048
2444000000,-14.823771,108.67169
2448500000,-14.547226,100.14868
2453000000,-14.454721,93.243645
2457500000,-14.158372,86.953217
2462000000,-13.950521,80.050407
2466500000,-13.829417,74.196754
2471000000,-13.659106,70.075638
2475500000,-13.47084,64.132324
2480000000,-13.432775,59.516651
2484500000,-13.36585,55.613201
2489000000,-13.303651,50.712959
2493500000,-13.389894,45.965
2498000000,-13.48591,41.796158
2502500000,-13.583488,36.984417
2507000000,-13.72705,31.421961
2511500000,-13.971958,25.894352
2516000000,-14.258564,20.316471
2520500000,-14.536261,14.531732
2525000000,-14.768868,8.502471
2529500000,-14.857843,2.4589863
2534000000,-15.098845,-4.5147624
2538500000,-15.23351,-11.727359
2543000000,-15.457519,-18.247416
2547500000,-15.728429,-24.352514
2552000000,-15.900644,-30.485659
2556500000,-16.191105,-35.84655
2561000000,-16.488501,-40.490658
2565500000,-16.717161,-45.654243
2570000000,-17.079762,-51.278664
2574500000,-17.551962,-55.786568
2579000000,-17.859835,-61.398014
2583500000,-18.460699,-68.301262
2588000000,-19.13913,-75.006767
2592500000,-19.574333,-82.587868
2597000000,-20.066063,-92.729622
2601500000,-20.594296,-102.30508
2606000000,-20.756306,-113.37774
2610500000,-20.919373,-125.14747
2615000000,-20.943125,-135.33925
2619500000,-20.661409,-145.65601
2624000000,-20.375341,-154.4328
2628500000,-20.150286,-162.15555
2633000000,-19.839977,-169.12057
2637500000,-19.579952,-174.52446
2642000000,-19.286924,178.68617
2646500000,-19.094482,171.89125
2651000000,-19.11381,165.57307
2655500000,-19.058271,159.1692
2660000000,-19.078316,152.44341
2664500000,-18.989006,147.26437
2669000000,-18.621367,141.10924
2673500000,-18.229059,132.9987
2678000000,-17.866997,125.59483
2682500000,-17.431431,118.17909
2687000000,-16.951283,110.88805
2691500000,-16.732273,104.90028
2696000000,-16.435907,100.08767
2700500000,-16.052259,95.24884
2705000000,-15.779895,91.473244
2709500000,-15.493944,88.309738
2714000000,-15.151108,84.429855
2718500000,-15.00244,81.234467
2723000000,-14.848457,77.846413
2727500000,-14.618362,74.265388
2732000000,-14.590604,69.964996
2736500000,-14.564935,66.502312
2741000000,-14.508295,62.035618
2745500000,-14.562492,56.852516
2750000000,-14.628784,52.390003
2754500000,-14.634434,47.737534
2759000000,-14.653882,42.78289
2763500000,-14.645053,38.138107
2768000000,-14.581002,33.748005
2772500000,-14.463296,28.311127
2777000000,-14.419922,23.960419
2781500000,-14.312458,20.312353
2786000000,-14.175599,16.146048
2790500000,-14.13141,12.803037
2795000000,-14.119408,9.6806679
2799500000,-14.076597,6.7602148
2804000000,-14.088584,3.8623853
2808500000,-14.154354,0.77270567
2813000000,-14.317232,-2.0540357
2817500000,-14.439813,-5.1438637
2822000000,-14.695148,-8.2152576
2826500000,-14.922517,-11.377092
2831000000,-15.166752,-14.80365
2835500000,-15.462849,-18.649656
2840000000,-15.738806,-22.433592
2844500000,-15.981194,-25.949066
2849000000,-16.214663,-30.249573
2853500000,-16.36553,-34.285244
2858000000,-16.456203,-38.668552
2862500000,-16.53639,-42.211586
2867000000,-16.553667,-45.287617
2871500000,-16.425022,-48.33889
2876000000,-16.385916,-51.458126
2880500000,-16.392723,-54.257557
2885000000,-16.265385,-56.673893
2889500000,-16.296011,-59.275341
2894000000,-16.338682,-61.547035
2898500000,-16.405436,-63.768471
2903000000,-16.560669,-66.80397
2907500000,-16.793068,-68.482849
2912000000,-16.915909,-71.687889
2916500000,-17.19615,-75.624619
2921000000,-17.555752,-78.210335
2925500000,-17.692896,-81.999619
2930000000,-17.868294,-86.806007
2934500000,-18.120676,-91.092087
2939000000,-18.05764,-95.759247
2943500000,-18.087616,-101.53155
2948000000,-18.104313,-107.44877
2952500000,-17.901352,-113.16131
2957000000,-17.728119,-119.39198
2961500000,-17.622349,-124.49591
2966000000,-17.473989,-128.93716
2970500000,-17.367962,-134.11359
2975000000,-17.353638,-138.37875
2979500000,-17.335125,-142.14372
2984000000,-17.391226,-146.47186
2988500000,-17.562843,-150.58235
2993000000,-17.763737,-154.6712
2997500000,-17.974573,-159.06845
3002000000,-18.271864,-165.18741
3006500000,-18.578619,-170.62648
3011000000,-18.794752,-177.18678
3015500000,-19.161196,175.71936
3020000000,-19.289888,168.41042
3024500000,-19.384701,161.49875
3029000000,-19.430513,153.90059
3033500000,-19.301479,146.72189
3038000000,-19.104574,141.23097
3042500000,-19.044201,135.19505
3047000000,-18.865034,130.34566
3051500000,-18.774069,126.98608
3056000000,-18.669024,122.71256
3060500000,-18.720207,118.72586
3065000000,-18.668797,115.66389
3069500000,-18.65056,111.18536
3074000000,-18.955906,106.03974
3078500000,-19.386066,101.85627
3083000000,-19.689213,97.594788
3087500000,-20.177425,92.654556
3092000000,-20.555344,88.699089
3096500000,-20.727736,83.506241
3101000000,-20.961586,76.126762
3105500000,-21.124594,70.088715
3110000000,-21.114479,63.531345
3114500000,-21.139639,57.186924
3119000000,-21.192299,51.935425
3123500000,-21.089334,47.805065
3128000000,-21.000061,43.181488
3132500000,-20.962542,40.46476
3137000000,-21.039873,38.444538
3141500000,-21.124752,35.93203
3146000000,-21.110121,34.881363
3150500000,-21.349855,33.351418
3155000000,-21.766096,31.340382
3159500000,-22.485298,31.816481
3164000000,-23.133875,32.220112
3168500000,-23.792725,35.091103
3173000000,-24.154104,36.926785
