!CSV A.01.01,,,
!Agilent Technologies,E8361C,US49010233,A.09.22.11
!Agilent E8361C: A.09.22.11,,,
!Date: Wednesday, September 28, 2022 12:47:15,
!Source: Standard,,,
,,,
BEGIN CH1_DATA,,,
Freq(Hz),S12(DB),S12(DEG),
500000000,-69.570221,173.55002,
504500000,-70.701698,19.544704,
509000000,-68.80571,-120.30698,
513500000,-65.941956,1.7603711,
518000000,-77.625519,-68.500717,
522500000,-71.37812,-136.86519,
527000000,-76.953697,-155.61365,
531500000,-71.025185,-73.703804,
536000000,-78.537048,-36.667149,
540500000,-67.599693,-21.377096,
545000000,-66.573662,74.575859,
549500000,-73.842155,-49.777176,
554000000,-74.145096,-50.846375,
558500000,-86.820961,167.69319,
563000000,-71.153198,-43.093575,
567500000,-66.279869,-28.560625,
572000000,-66.337196,110.61156,
576500000,-68.498634,-57.640636,
581000000,-69.875755,103.07364,
585500000,-69.691788,-70.135986,
590000000,-83.530212,90.674492,
594500000,-77.270622,-136.55971,
599000000,-78.396446,-19.627897,
603500000,-67.872101,-97.844048,
608000000,-69.352875,135.94058,
612500000,-78.163284,65.453026,
617000000,-71.921021,-121.67709,
621500000,-74.65406,155.86568,
626000000,-63.514179,-38.743851,
630500000,-72.484016,178.30229,
635000000,-66.168808,133.28535,
639500000,-71.594086,75.219391,
644000000,-81.998924,-29.907969,
648500000,-72.231628,129.07545,
653000000,-77.425476,167.96906,
657500000,-67.996803,-38.567955,
662000000,-69.046402,-45.924286,
666500000,-68.9151,171.01236,
671000000,-67.061813,142.0392,
675500000,-73.694672,120.45395,
680000000,-71.943008,169.94499,
684500000,-64.015144,-86.157341,
689000000,-78.794037,91.272179,
693500000,-77.026337,93.126846,
698000000,-71.469337,40.388557,
702500000,-83.912025,111.12511,
707000000,-67.594757,-10.148849,
711500000,-78.961021,-6.6583643,
716000000,-74.088203,-22.385706,
720500000,-66.805222,37.938351,
725000000,-70.87899,45.501743,
729500000,-68.414848,53.756279,
734000000,-71.09108,108.7789,
738500000,-70.252975,28.352459,
743000000,-83.601776,-9.6046638,
747500000,-69.033417,60.173012,
752000000,-66.386574,49.139458,
756500000,-81.085503,-150.22444,
761000000,-67.681992,149.33536,
765500000,-65.478722,-42.643501,
770000000,-69.325584,165.5172,
774500000,-64.80722,-22.932001,
779000000,-73.201164,-117.73238,
783500000,-68.663406,15.061046,
788000000,-69.213135,-3.613255,
792500000,-72.495316,-160.50681,
797000000,-65.617233,-66.715118,
801500000,-69.627937,-85.405891,
806000000,-70.568069,-121.26896,
810500000,-63.61137,-121.42033,
815000000,-70.607643,-137.98584,
819500000,-64.159706,-110.28902,
824000000,-72.291946,-123.40314,
828500000,-62.521858,-99.38385,
833000000,-68.475174,-133.06891,
837500000,-62.423763,-160.12279,
842000000,-76.920731,-80.123688,
846500000,-68.915688,178.11713,
851000000,-65.534981,20.749683,
855500000,-86.651123,-88.198631,
860000000,-71.12973,-178.49249,
864500000,-65.942429,176.38449,
869000000,-65.537216,111.62308,
873500000,-71.441307,178.11134,
878000000,-58.904633,138.10419,
882500000,-60.709927,139.16481,
887000000,-66.5588,114.0212,
891500000,-63.229424,105.13544,
896000000,-66.792015,164.71716,
900500000,-66.986786,37.272728,
905000000,-68.541176,177.59619,
909500000,-67.123032,114.85903,
914000000,-73.444244,134.8102,
918500000,-63.981628,93.050949,
923000000,-60.66531,104.1832,
927500000,-60.624004,63.916958,
932000000,-61.64888,55.743095,
936500000,-63.749958,73.239174,
941000000,-62.365143,32.101334,
945500000,-58.324112,52.685932,
950000000,-63.896305,23.325003,
954500000,-66.915955,37.607483,
959000000,-62.505135,56.562618,
963500000,-66.285774,16.176693,
968000000,-68.756989,-13.939848,
972500000,-63.490421,7.261385,
977000000,-68.440392,-102.3872,
981500000,-67.555382,9.1646061,
986000000,-74.767273,-29.146883,
990500000,-63.370461,57.224072,
995000000,-64.845116,86.040634,
999500000,-62.307457,98.081589,
1004000000,-58.935814,87.206352,
1008500000,-56.461842,63.227512,
1013000000,-53.296711,56.429626,
1017500000,-49.500069,31.239992,
1022000000,-48.889446,2.6714311,
1026500000,-49.21917,1.4407271,
1031000000,-47.804207,-9.4287491,
1035500000,-47.170097,-5.0681338,
1040000000,-45.404545,-10.350586,
1044500000,-42.733044,-22.435783,
1049000000,-40.745575,-40.483974,
1053500000,-39.205017,-58.402401,
1058000000,-38.491718,-76.023941,
1062500000,-38.55344,-91.481148,
1067000000,-37.787128,-98.206566,
1071500000,-36.479923,-109.18446,
1076000000,-34.827972,-121.18722,
1080500000,-33.558746,-140.25154,
1085000000,-32.520443,-160.90027,
1089500000,-32.605171,175.53775,
1094000000,-33.024315,155.0446,
1098500000,-34.353199,137.06845,
1103000000,-35.47435,127.2915,
1107500000,-36.045784,117.92879,
1112000000,-36.659416,108.51185,
1116500000,-37.765987,95.399391,
1121000000,-38.070915,94.35952,
1125500000,-37.810299,87.264915,
1130000000,-37.173882,78.386131,
1134500000,-37.747864,67.261375,
1139000000,-37.594658,62.936035,
1143500000,-37.128319,51.694214,
1148000000,-37.445534,40.240505,
1152500000,-37.346508,31.362869,
1157000000,-38.092026,15.945528,
1161500000,-39.07238,11.592098,
1166000000,-40.17112,5.0845141,
1170500000,-40.769855,6.3170705,
1175000000,-39.289234,8.8486643,
1179500000,-37.875843,3.1033397,
1184000000,-37.031132,-7.2522693,
1188500000,-36.922951,-21.133783,
1193000000,-36.911007,-32.088371,
1197500000,-37.307533,-42.296043,
1202000000,-37.789585,-47.671406,
1206500000,-38.103676,-50.402515,
1211000000,-37.350754,-55.233452,
1215500000,-36.700783,-62.464432,
1220000000,-35.934563,-70.860588,
1224500000,-35.38612,-84.42997,
1229000000,-35.405411,-100.55207,
1233500000,-35.929684,-113.17635,
1238000000,-36.554829,-124.81525,
1242500000,-37.495567,-131.85753,
1247000000,-38.726486,-135.72385,
1251500000,-39.313217,-135.98227,
1256000000,-38.90992,-134.48888,
1260500000,-37.600441,-136.00055,
1265000000,-36.257957,-143.91426,
1269500000,-34.966171,-158.25417,
1274000000,-34.880474,-175.28615,
1278500000,-35.434498,171.98383,
1283000000,-35.933468,161.94153,
1287500000,-36.449276,151.77917,
1292000000,-37.286774,144.98302,
1296500000,-38.120716,140.76653,
1301000000,-38.558659,140.13541,
1305500000,-38.12289,141.94144,
1310000000,-36.974754,136.67232,
1314500000,-36.095619,129.35287,
1319000000,-34.977566,116.38199,
1323500000,-35.425968,100.7991,
1328000000,-36.564667,85.652924,
1332500000,-38.412914,83.303963,
1337000000,-39.14439,84.18248,
1341500000,-39.061764,91.904137,
1346000000,-37.807384,91.786591,
1350500000,-36.232716,87.748062,
1355000000,-34.704067,75.055756,
1359500000,-34.020031,59.603203,
1364000000,-34.283978,45.512806,
1368500000,-34.74675,35.394859,
1373000000,-35.43409,26.989391,
1377500000,-35.849968,20.995815,
1382000000,-36.032997,16.577751,
1386500000,-35.636395,11.679523,
1391000000,-35.423531,5.5448174,
1395500000,-34.737019,-2.6538136,
1400000000,-34.466263,-12.687279,
1404500000,-34.313061,-22.809864,
1409000000,-35.161053,-32.090641,
1413500000,-35.461342,-37.313492,
1418000000,-35.870129,-43.0742,
1422500000,-35.544281,-46.370178,
1427000000,-35.164085,-49.186611,
1431500000,-34.974705,-56.26733,
1436000000,-34.407028,-57.320278,
1440500000,-33.274723,-62.963272,
1445000000,-32.207756,-75.410095,
1449500000,-31.914423,-90.645485,
1454000000,-32.227379,-102.77575,
1458500000,-32.789043,-111.48843,
1463000000,-33.10891,-116.36391,
1467500000,-33.296154,-123.5336,
1472000000,-33.044449,-127.47942,
1476500000,-32.222317,-133.30238,
1481000000,-31.485262,-142.6311,
1485500000,-31.126455,-158.03656,
1490000000,-31.375761,-170.71877,
1494500000,-31.706404,178.02127,
1499000000,-32.533199,168.9922,
1503500000,-33.063141,160.92009,
1508000000,-33.584911,155.71037,
1512500000,-34.025616,151.425,
1517000000,-33.800446,146.73364,
1521500000,-33.267044,141.0999,
1526000000,-32.810806,132.49051,
1530500000,-32.40313,119.16758,
1535000000,-32.687595,107.03442,
1539500000,-33.059982,97.005554,
1544000000,-33.782116,86.971611,
1548500000,-34.632427,78.680206,
1553000000,-35.044991,72.747025,
1557500000,-35.450787,68.857399,
1562000000,-35.938145,62.874371,
1566500000,-35.94194,58.821774,
1571000000,-35.720921,52.626072,
1575500000,-35.905201,45.558498,
1580000000,-36.351357,38.175152,
1584500000,-36.696602,32.977104,
1589000000,-36.629417,27.524538,
1593500000,-36.572922,24.353214,
1598000000,-36.289352,19.219982,
1602500000,-35.711914,11.531029,
1607000000,-35.901482,3.8323467,
1611500000,-35.916271,-7.8842554,
1616000000,-36.61504,-15.819495,
1620500000,-36.881012,-19.974918,
1625000000,-36.477783,-25.37948,
1629500000,-36.437744,-30.739792,
1634000000,-36.115646,-40.594166,
1638500000,-36.268631,-52.124943,
1643000000,-36.259907,-62.241768,
1647500000,-36.973763,-71.667595,
1652000000,-37.789005,-79.21524,
1656500000,-38.086948,-81.717682,
1661000000,-38.551117,-88.822258,
1665500000,-38.956692,-95.919136,
1670000000,-38.895359,-101.2758,
1674500000,-39.457962,-111.64417,
1679000000,-40.655449,-113.44059,
1683500000,-41.235653,-117.45577,
1688000000,-41.40538,-116.48509,
1692500000,-41.083748,-116.97466,
1697000000,-40.417862,-121.20854,
1701500000,-40.305573,-128.41495,
1706000000,-39.940384,-134.52394,
1710500000,-39.769341,-138.80219,
1715000000,-38.639538,-147.66191,
1719500000,-38.81538,-159.99797,
1724000000,-39.941769,-169.55489,
1728500000,-39.718845,-173.87827,
1733000000,-40.370911,-179.77258,
1737500000,-40.851791,174.81886,
1742000000,-40.508579,169.12398,
1746500000,-40.338245,163.6624,
1751000000,-40.107208,154.96211,
1755500000,-40.364361,144.20485,
1760000000,-40.862171,136.69762,
1764500000,-41.927834,131.54422,
1769000000,-42.015812,121.11148,
1773500000,-42.765659,117.54456,
1778000000,-43.357178,117.16874,
1782500000,-43.474182,114.75837,
1787000000,-43.277424,115.48737,
1791500000,-41.977421,107.469,
1796000000,-41.597054,97.739578,
1800500000,-42.04071,84.360008,
1805000000,-43.568989,70.634964,
1809500000,-45.100197,69.875237,
1814000000,-47.138371,71.806534,
1818500000,-47.645214,76.23082,
1823000000,-47.157303,93.093658,
1827500000,-46.365623,96.347183,
1832000000,-43.68161,92.418236,
1836500000,-42.215305,82.801903,
1841000000,-40.410988,71.268089,
1845500000,-41.141201,60.866188,
1850000000,-40.667934,47.694897,
1854500000,-41.540409,42.648724,
1859000000,-42.007271,33.972019,
1863500000,-42.924274,29.012028,
1868000000,-42.978794,29.609602,
1872500000,-43.124313,27.170052,
1877000000,-41.918098,28.742853,
1881500000,-41.26894,26.576237,
1886000000,-40.136452,20.004894,
1890500000,-39.290447,11.490565,
1895000000,-38.590454,3.1811912,
1899500000,-37.98814,-6.2759066,
1904000000,-38.114265,-17.503174,
1908500000,-38.063583,-26.887442,
1913000000,-37.750626,-34.161461,
1917500000,-37.929386,-44.539894,
1922000000,-37.58572,-50.478771,
1926500000,-37.597137,-62.811993,
1931000000,-38.283447,-70.616081,
1935500000,-38.45433,-73.831192,
1940000000,-37.798901,-80.959549,
1944500000,-37.649376,-82.435555,
1949000000,-37.149307,-89.595108,
1953500000,-36.359776,-103.79965,
1958000000,-36.055618,-113.87634,
1962500000,-36.315075,-127.45708,
1967000000,-36.733578,-137.84636,
1971500000,-37.737087,-145.74319,
1976000000,-38.328449,-149.86116,
1980500000,-38.809017,-154.57179,
1985000000,-38.184868,-158.92654,
1989500000,-37.500046,-165.40283,
1994000000,-37.253487,-176.31868,
1998500000,-37.498962,172.7002,
2003000000,-37.720379,160.16614,
2007500000,-38.327808,151.491,
2012000000,-39.776325,147.1107,
2016500000,-40.588734,142.56099,
2021000000,-40.677696,137.14125,
2025500000,-40.614468,133.65601,
2030000000,-40.275784,129.29442,
2034500000,-39.871456,120.87611,
2039000000,-40.445881,108.24731,
2043500000,-41.145973,99.260849,
2048000000,-42.072289,92.021866,
2052500000,-44.262268,86.517517,
2057000000,-45.258656,90.756905,
2061500000,-44.935516,93.915421,
2066000000,-44.083519,96.383514,
2070500000,-42.849377,90.401611,
2075000000,-41.268169,83.53904,
2079500000,-40.389229,70.090317,
2084000000,-40.754215,57.183186,
2088500000,-41.764011,47.95462,
2093000000,-42.623955,30.881516,
2097500000,-43.026131,25.769596,
2102000000,-44.356342,20.049339,
2106500000,-44.714561,20.215055,
2111000000,-45.1245,19.689657,
2115500000,-45.136364,19.667873,
2120000000,-43.59227,11.973162,
2124500000,-43.340397,5.7890043,
2129000000,-43.442566,-1.5479867,
2133500000,-44.331955,-8.8922672,
2138000000,-44.210011,-19.176462,
2142500000,-43.44627,-24.356771,
2147000000,-44.935791,-31.717319,
2151500000,-45.730473,-34.599224,
2156000000,-44.981361,-39.999233,
2160500000,-44.581509,-40.499462,
2165000000,-45.001617,-51.37006,
2169500000,-44.873196,-55.731667,
2174000000,-45.944248,-62.476894,
2178500000,-46.244583,-62.962883,
2183000000,-46.645557,-70.923439,
2187500000,-46.126804,-68.49942,
2192000000,-45.325867,-78.311272,
2196500000,-45.142624,-85.710243,
2201000000,-45.456772,-88.085724,
2205500000,-45.468845,-100.22682,
2210000000,-46.856564,-109.40208,
2214500000,-47.070671,-113.73521,
2219000000,-50.021595,-109.29859,
2223500000,-50.33519,-110.52916,
2228000000,-49.583042,-106.34168,
2232500000,-48.167706,-113.23604,
2237000000,-46.67252,-118.47324,
2241500000,-46.35696,-127.23879,
2246000000,-45.393131,-131.1535,
2250500000,-45.110115,-140.08035,
2255000000,-46.732159,-147.11523,
2259500000,-46.379906,-152.35802,
2264000000,-46.891144,-147.12759,
2268500000,-46.854931,-154.32507,
2273000000,-46.402344,-148.43848,
2277500000,-45.392696,-161.19035,
2282000000,-44.621342,-170.29617,
2286500000,-44.098709,-176.96129,
2291000000,-44.46796,163.47575,
2295500000,-45.358875,159.22705,
2300000000,-45.841564,163.75084,
2304500000,-45.486755,160.72946,
2309000000,-44.659611,163.82608,
2313500000,-42.659168,154.95728,
2318000000,-41.492584,140.83302,
2322500000,-41.32589,127.10318,
2327000000,-41.78054,117.59013,
2331500000,-42.271118,106.87725,
2336000000,-42.352383,99.342079,
2340500000,-42.726505,89.036766,
2345000000,-42.709869,80.710274,
2349500000,-42.447567,73.539268,
2354000000,-42.613262,63.741505,
2358500000,-42.852188,58.88974,
2363000000,-42.7244,49.605904,
2367500000,-43.832024,45.583035,
2372000000,-44.033657,38.181648,
2376500000,-43.818436,29.378052,
2381000000,-45.324871,19.234846,
2385500000,-44.834282,6.9485292,
2390000000,-45.367847,-4.4026313,
2394500000,-47.678772,-7.4982715,
2399000000,-49.158775,-20.549046,
2403500000,-51.759434,-19.777191,
2408000000,-50.648052,-6.098772,
2412500000,-51.940231,5.534431,
2417000000,-51.186558,5.7319078,
2421500000,-49.105877,-11.180674,
2426000000,-48.13216,-7.6947093,
2430500000,-46.923462,-13.327008,
2435000000,-47.023914,-39.2467,
2439500000,-47.871292,-47.555988,
2444000000,-50.082603,-64.482162,
2448500000,-52.447941,-47.911072,
2453000000,-49.463379,-58.938278,
2457500000,-49.989941,-50.578499,
2462000000,-49.610531,-50.684814,
2466500000,-48.093346,-66.630264,
2471000000,-50.164997,-90.687691,
2475500000,-50.710995,-82.053696,
2480000000,-49.413952,-87.736641,
2484500000,-50.302048,-103.08136,
2489000000,-50.414108,-101.08503,
2493500000,-52.069244,-99.931648,
2498000000,-51.858376,-98.106445,
2502500000,-51.82468,-94.019493,
2507000000,-51.058414,-109.53113,
2511500000,-48.886604,-115.48819,
2516000000,-48.965721,-133.52382,
2520500000,-52.640106,-130.59532,
2525000000,-53.267941,-129.49644,
2529500000,-50.999599,-132.18799,
2534000000,-52.785011,-143.45773,
2538500000,-49.770336,-146.50142,
2543000000,-50.814354,-135.88983,
2547500000,-53.519833,-169.51282,
2552000000,-51.259449,-167.59695,
2556500000,-52.128845,-176.01129,
2561000000,-52.776966,-169.77237,
2565500000,-54.290028,-170.44838,
2570000000,-51.999336,179.50473,
2574500000,-54.155567,161.06126,
2579000000,-52.870556,-176.69107,
2583500000,-49.985809,169.39755,
2588000000,-51.513622,166.17699,
2592500000,-50.921017,168.8299,
2597000000,-50.811356,162.55298,
2601500000,-52.20451,156.36803,
2606000000,-53.276791,158.90839,
2610500000,-51.694298,148.50827,
2615000000,-50.379349,154.42542,
2619500000,-51.149895,162.5312,
2624000000,-49.442081,139.25806,
2628500000,-48.81929,140.85651,
2633000000,-48.616608,131.23607,
2637500000,-47.508884,130.08133,
2642000000,-46.399498,124.07198,
2646500000,-45.762081,119.02898,
2651000000,-45.156834,108.00681,
2655500000,-44.328846,92.894264,
2660000000,-44.399937,91.214844,
2664500000,-44.03323,75.794083,
2669000000,-44.540665,65.430183,
2673500000,-45.476032,59.279007,
2678000000,-44.896069,50.983814,
2682500000,-45.56609,49.867321,
2687000000,-46.320538,32.480434,
2691500000,-45.397911,34.249859,
2696000000,-45.42522,26.8354,
2700500000,-45.632706,21.022562,
2705000000,-46.236591,11.568422,
2709500000,-46.251064,3.9115994,
2714000000,-46.496883,-1.6384406,
2718500000,-46.89867,-10.209232,
2723000000,-46.970196,-5.0814023,
2727500000,-47.035122,-12.863106,
2732000000,-45.266308,-19.331316,
2736500000,-44.627144,-25.559879,
2741000000,-45.264431,-39.087875,
2745500000,-44.160007,-45.763733,
2750000000,-45.169388,-64.668861,
2754500000,-45.068737,-71.589912,
2759000000,-46.045086,-74.021072,
2763500000,-45.492367,-79.345093,
2768000000,-46.792049,-81.166695,
2772500000,-47.263176,-91.963669,
2777000000,-47.122437,-96.746666,
2781500000,-47.499271,-103.38471,
2786000000,-48.554413,-97.404144,
2790500000,-49.33482,-98.706429,
2795000000,-48.66906,-114.90516,
2799500000,-50.392239,-119.05575,
2804000000,-51.498001,-108.45591,
2808500000,-48.85548,-107.11466,
2813000000,-49.405556,-108.70065,
2817500000,-48.768372,-107.99888,
2822000000,-49.942398,-119.41032,
2826500000,-47.683754,-124.01949,
2831000000,-45.557613,-128.60371,
2835500000,-45.740318,-139.02119,
2840000000,-46.13879,-140.85493,
2844500000,-44.702412,-147.09163,
2849000000,-45.450386,-155.78706,
2853500000,-44.491913,-162.57065,
2858000000,-44.335449,-174.41391,
2862500000,-44.2332,-179.01805,
2867000000,-44.05563,165.07831,
2871500000,-43.586449,159.25729,
2876000000,-44.435474,152.38255,
2880500000,-44.387115,139.34105,
2885000000,-45.401733,138.27643,
2889500000,-45.737507,126.74389,
2894000000,-45.892166,123.75351,
2898500000,-47.093853,114.36901,
2903000000,-45.931385,119.59254,
2907500000,-46.51569,110.96774,
2912000000,-47.476952,106.27348,
2916500000,-48.474522,104.84809,
2921000000,-47.328976,95.877441,
2925500000,-48.454285,103.69424,
2930000000,-46.54332,96.505646,
2934500000,-46.388771,94.556984,
2939000000,-44.764263,89.752655,
2943500000,-45.293583,79.462273,
2948000000,-44.826859,70.665916,
2952500000,-44.344891,68.554688,
2957000000,-44.743233,53.007538,
2961500000,-44.765987,47.541073,
2966000000,-44.095638,41.741573,
2970500000,-45.442928,35.7822,
2975000000,-45.743511,33.700306,
2979500000,-45.579811,25.655096,
2984000000,-45.340668,15.270256,
2988500000,-44.769287,17.488386,
2993000000,-44.998306,7.8861108,
2997500000,-44.924473,-5.3998346,
3002000000,-45.231628,-11.038049,
3006500000,-46.067661,-18.177935,
3011000000,-45.358265,-22.836145,
3015500000,-47.852066,-20.335934,
3020000000,-46.369118,-26.535597,
3024500000,-46.125702,-31.005316,
3029000000,-46.126003,-33.122837,
3033500000,-44.513012,-42.937088,
3038000000,-45.631573,-51.401939,
3042500000,-43.936241,-56.647987,
3047000000,-44.356155,-62.86673,
3051500000,-44.818604,-67.922943,
3056000000,-44.374313,-74.495804,
3060500000,-44.364368,-87.440933,
3065000000,-44.158844,-86.362358,
3069500000,-44.488892,-97.313538,
3074000000,-44.198143,-107.12027,
3078500000,-44.524769,-113.08691,
3083000000,-45.185398,-121.70776,
3087500000,-44.762882,-125.59889,
3092000000,-45.483044,-128.15355,
3096500000,-44.929749,-128.30124,
3101000000,-44.405811,-133.23933,
3105500000,-43.309834,-148.22787,
