!CSV A.01.01,,,
!Agilent Technologies,E8361C,US49010233,A.09.22.11
!Agilent E8361C: A.09.22.11,,,
!Date: Wednesday, September 28, 2022 12:43:35,
!Source: Standard,,,
,,,
BEGIN CH1_DATA,,,
Freq(Hz),S11(DB),S11(DEG),
500000000,-0.2639865,165.6662,
504500000,-0.28606015,164.24583,
509000000,-0.24556026,162.72104,
513500000,-0.26139876,160.99873,
518000000,-0.24678867,159.59366,
522500000,-0.27034101,157.96765,
527000000,-0.26475322,156.31508,
531500000,-0.25776851,155.1021,
536000000,-0.251367,153.4803,
540500000,-0.28706741,151.86903,
545000000,-0.30145133,150.27821,
549500000,-0.28921679,148.67215,
554000000,-0.26940101,147.37335,
558500000,-0.29150712,145.83244,
563000000,-0.29461288,144.18767,
567500000,-0.30564195,142.5251,
572000000,-0.31253886,140.91039,
576500000,-0.30795899,139.26234,
581000000,-0.30854586,137.99287,
585500000,-0.28088683,136.20964,
590000000,-0.32068989,134.8997,
594500000,-0.32014018,133.38977,
599000000,-0.27836227,131.77505,
603500000,-0.32611814,130.22325,
608000000,-0.33138829,128.89983,
612500000,-0.30323213,127.3503,
617000000,-0.33826736,125.96316,
621500000,-0.33243018,124.39708,
626000000,-0.32265353,123.02224,
630500000,-0.33814177,121.65974,
635000000,-0.30855042,120.21577,
639500000,-0.33324304,118.72315,
644000000,-0.34940144,117.27213,
648500000,-0.35619211,115.8118,
653000000,-0.35935506,114.30579,
657500000,-0.3636879,112.6543,
662000000,-0.33385584,111.40721,
666500000,-0.37153485,109.74086,
671000000,-0.36176103,108.1985,
675500000,-0.35301802,106.64193,
680000000,-0.37686619,105.23508,
684500000,-0.35132539,103.73492,
689000000,-0.34099925,102.28043,
693500000,-0.38395593,100.81538,
698000000,-0.3532708,99.146172,
702500000,-0.3704493,98.16243,
707000000,-0.36259705,96.339584,
711500000,-0.3398577,94.942284,
716000000,-0.35754505,93.688889,
720500000,-0.36385596,92.040077,
725000000,-0.37647465,90.852173,
729500000,-0.37821105,89.306213,
734000000,-0.36237082,88.018433,
738500000,-0.38062021,86.430222,
743000000,-0.37096289,85.318428,
747500000,-0.38986674,83.834282,
752000000,-0.39138871,82.311165,
756500000,-0.37568927,81.007256,
761000000,-0.38420284,79.373924,
765500000,-0.3824819,77.737099,
770000000,-0.40210098,76.568329,
774500000,-0.42397526,74.812027,
779000000,-0.43084973,73.189796,
783500000,-0.39871171,72.064041,
788000000,-0.40666074,70.254974,
792500000,-0.42794678,68.674553,
797000000,-0.40879804,67.593132,
801500000,-0.41391793,65.881424,
806000000,-0.4444131,64.822395,
810500000,-0.38355103,63.26516,
815000000,-0.43049228,61.713684,
819500000,-0.45819184,60.38715,
824000000,-0.4249371,59.201839,
828500000,-0.4239997,57.66399,
833000000,-0.42750058,56.377533,
837500000,-0.4126094,54.868229,
842000000,-0.42337981,53.317802,
846500000,-0.44797263,52.023716,
851000000,-0.39806348,50.571232,
855500000,-0.46222162,48.829762,
860000000,-0.45918739,47.518459,
864500000,-0.43791616,46.042397,
869000000,-0.41064,44.454777,
873500000,-0.47235927,42.918976,
878000000,-0.41786465,41.360432,
882500000,-0.4308351,39.771019,
887000000,-0.45923516,38.028961,
891500000,-0.48391283,36.691231,
896000000,-0.46516895,35.208164,
900500000,-0.43767881,33.655518,
905000000,-0.44184029,32.120022,
909500000,-0.44980976,30.642647,
914000000,-0.47826838,29.17775,
918500000,-0.46356678,27.841841,
923000000,-0.47747141,26.132507,
927500000,-0.48742568,24.704866,
932000000,-0.51102853,23.098722,
936500000,-0.47688234,21.814358,
941000000,-0.49747074,19.871191,
945500000,-0.50717813,18.327488,
950000000,-0.5212726,16.92005,
954500000,-0.5315268,15.033008,
959000000,-0.52175272,13.273795,
963500000,-0.54288507,11.667488,
968000000,-0.53977674,9.5828314,
972500000,-0.56827545,7.6572614,
977000000,-0.57649386,5.9880061,
981500000,-0.54652631,3.8732941,
986000000,-0.57252485,1.9383844,
990500000,-0.60674387,0.24668849,
995000000,-0.59262562,-2.2183342,
999500000,-0.66059387,-4.1671667,
1004000000,-0.6591568,-6.1685219,
1008500000,-0.64515734,-8.5882673,
1013000000,-0.77067453,-10.93319,
1017500000,-0.8023175,-12.750108,
1022000000,-0.79002374,-15.41732,
1026500000,-0.96340561,-18.1912,
1031000000,-1.0479174,-20.312588,
1035500000,-1.0650332,-23.586613,
1040000000,-1.3004726,-27.18297,
1044500000,-1.4581801,-30.044336,
1049000000,-1.6217425,-34.31715,
1053500000,-2.0109851,-38.924034,
1058000000,-2.5083663,-43.2635,
1062500000,-3.0912838,-48.490723,
1067000000,-4.0719523,-54.332306,
1071500000,-5.4349613,-58.771175,
1076000000,-7.254251,-61.806362,
1080500000,-9.8076763,-60.554977,
1085000000,-12.793573,-47.751064,
1089500000,-13.835908,-19.256319,
1094000000,-11.617917,1.5093819,
1098500000,-9.1910391,7.3340659,
1103000000,-7.4659791,7.1457429,
1107500000,-6.2844148,5.0597854,
1112000000,-5.3858304,2.4716163,
1116500000,-4.7419353,-0.39044058,
1121000000,-4.2537622,-2.761585,
1125500000,-3.7866638,-5.1252351,
1130000000,-3.3841243,-7.6863766,
1134500000,-2.9287982,-9.4478073,
1139000000,-2.5237906,-14.191003,
1143500000,-2.6569099,-17.38201,
1148000000,-2.5837324,-19.093725,
1152500000,-2.410037,-21.127203,
1157000000,-2.2992315,-23.871338,
1161500000,-2.2902055,-26.122662,
1166000000,-2.1730862,-28.243422,
1170500000,-2.0957196,-30.816349,
1175000000,-2.1317527,-33.299713,
1179500000,-2.079443,-35.161846,
1184000000,-2.0684464,-37.767124,
1188500000,-2.1099327,-39.988785,
1193000000,-2.0760515,-41.855545,
1197500000,-2.0637739,-44.284367,
1202000000,-2.1945245,-46.303326,
1206500000,-2.1849561,-47.803387,
1211000000,-2.2286646,-49.863132,
1215500000,-2.3054717,-51.033165,
1220000000,-2.2689054,-52.272655,
1224500000,-2.2465668,-54.233948,
1229000000,-2.3068018,-56.032726,
1233500000,-2.3351884,-56.909904,
1238000000,-2.2649257,-58.865562,
1242500000,-2.3412056,-60.707638,
1247000000,-2.3926375,-62.110367,
1251500000,-2.3888855,-64.457634,
1256000000,-2.5813556,-65.941902,
1260500000,-2.598768,-67.024986,
1265000000,-2.6094501,-68.936363,
1269500000,-2.7472727,-70.562531,
1274000000,-2.7454209,-71.960068,
1278500000,-2.7363105,-74.012589,
1283000000,-2.8439674,-75.684753,
1287500000,-2.8907554,-76.895645,
1292000000,-2.8804057,-79.004051,
1296500000,-3.0176389,-80.533257,
1301000000,-3.0479562,-81.632462,
1305500000,-3.0449817,-83.255501,
1310000000,-3.1531701,-84.605392,
1314500000,-3.1393256,-85.729073,
1319000000,-3.1060443,-87.446274,
1323500000,-3.1479092,-88.689575,
1328000000,-3.1540189,-89.599907,
1332500000,-3.0981774,-91.095406,
1337000000,-3.1814492,-93.067451,
1341500000,-3.1486931,-94.089638,
1346000000,-3.1202602,-96.310783,
1350500000,-3.2125692,-97.809608,
1355000000,-3.2255206,-99.135246,
1359500000,-3.1964664,-101.55688,
1364000000,-3.2986989,-103.49223,
1368500000,-3.2880435,-105.14008,
1373000000,-3.2727737,-107.84057,
1377500000,-3.3762755,-110.26308,
1382000000,-3.4810276,-112.07227,
1386500000,-3.5053501,-114.74849,
1391000000,-3.637692,-117.21223,
1395500000,-3.7075841,-119.37276,
1400000000,-3.7822299,-121.91184,
1404500000,-3.9714038,-124.42935,
1409000000,-4.1322675,-126.83746,
1413500000,-4.3279119,-129.32225,
1418000000,-4.6385212,-131.85356,
1422500000,-5.0007992,-134.17566,
1427000000,-5.5598316,-135.72986,
1431500000,-6.343956,-135.38293,
1436000000,-6.7978764,-129.50253,
1440500000,-6.0437779,-125.20208,
1445000000,-5.3819056,-127.6572,
1449500000,-5.1828194,-131.07651,
1454000000,-5.2070632,-134.40385,
1458500000,-5.3227224,-136.99693,
1463000000,-5.4213891,-138.96544,
1467500000,-5.5107265,-141.04353,
1472000000,-5.5778294,-143.33842,
1476500000,-5.6669712,-145.44902,
1481000000,-5.7345266,-147.68849,
1485500000,-5.8549967,-150.27608,
1490000000,-5.933495,-152.73363,
1494500000,-6.0757723,-155.13533,
1499000000,-6.1644559,-157.44569,
1503500000,-6.3020725,-159.74979,
1508000000,-6.4809122,-162.24821,
1512500000,-6.653357,-164.53239,
1517000000,-6.8404241,-166.64328,
1521500000,-6.9532781,-168.67406,
1526000000,-7.2044959,-171.07919,
1530500000,-7.4215579,-173.35683,
1535000000,-7.6158171,-175.73802,
1539500000,-7.9127541,-178.60448,
1544000000,-8.3116989,178.88574,
1548500000,-8.6720066,176.52553,
1553000000,-9.0863743,173.58134,
1557500000,-9.6050453,171.19576,
1562000000,-10.04934,168.93016,
1566500000,-10.609101,165.89719,
1571000000,-11.311361,163.28964,
1575500000,-12.025304,161.25758,
1580000000,-12.789222,158.99353,
1584500000,-13.702072,158.26828,
1589000000,-14.495505,157.99835,
1593500000,-15.367749,157.90904,
1598000000,-16.466722,159.36479,
1602500000,-17.380041,162.7189,
1607000000,-18.133173,166.57364,
1611500000,-18.873325,172.08043,
1616000000,-19.494799,179.17323,
1620500000,-19.824686,-172.07735,
1625000000,-19.746725,-161.91246,
1629500000,-19.02844,-152.80743,
1634000000,-18.048725,-147.0988,
1638500000,-17.093222,-144.17354,
1643000000,-16.311399,-142.40022,
1647500000,-15.597167,-141.06795,
1652000000,-14.934762,-140.41068,
1656500000,-14.253163,-140.64842,
1661000000,-13.664996,-141.48434,
1665500000,-13.214047,-143.26489,
1670000000,-12.841494,-144.84822,
1674500000,-12.530872,-147.01538,
1679000000,-12.230776,-149.42505,
1683500000,-12.014324,-151.93732,
1688000000,-11.782064,-154.31187,
1692500000,-11.576455,-156.60779,
1697000000,-11.420035,-159.29913,
1701500000,-11.254252,-161.89342,
1706000000,-11.108635,-164.00108,
1710500000,-10.937651,-166.07536,
1715000000,-10.791304,-168.21849,
1719500000,-10.6057,-170.38284,
1724000000,-10.442388,-172.26776,
1728500000,-10.265424,-174.21811,
1733000000,-10.110754,-176.07677,
1737500000,-9.925642,-178.17105,
1742000000,-9.8099365,179.49837,
1746500000,-9.6754627,177.78362,
1751000000,-9.5015526,175.42226,
1755500000,-9.4610653,172.62979,
1760000000,-9.374548,170.74217,
1764500000,-9.3099489,167.63683,
1769000000,-9.3471489,164.86194,
1773500000,-9.3084736,162.52155,
1778000000,-9.2560749,159.48308,
1782500000,-9.3039589,156.07372,
1787000000,-9.2957907,153.19359,
1791500000,-9.2275982,149.94283,
1796000000,-9.3090649,146.22824,
1800500000,-9.3373165,143.49744,
1805000000,-9.2601261,140.01402,
1809500000,-9.3326578,136.42645,
1814000000,-9.4067745,133.78275,
1818500000,-9.3505135,130.51575,
1823000000,-9.3834724,127.33958,
1827500000,-9.4300251,124.89462,
1832000000,-9.3674259,121.96973,
1836500000,-9.4020452,118.62548,
1841000000,-9.477499,116.26754,
1845500000,-9.3742743,112.84978,
1850000000,-9.4414806,109.02236,
1854500000,-9.5238705,105.7243,
1859000000,-9.5065594,102.01919,
1863500000,-9.5869627,97.014885,
1868000000,-9.7889709,92.894798,
1872500000,-9.8084326,88.384552,
1877000000,-9.9813843,82.812088,
1881500000,-10.192029,78.020958,
1886000000,-10.303371,73.296532,
1890500000,-10.381811,67.792099,
1895000000,-10.559825,62.699875,
1899500000,-10.593478,57.825108,
1904000000,-10.672486,52.503418,
1908500000,-10.814184,47.245621,
1913000000,-10.876254,42.130451,
1917500000,-10.936229,37.053974,
1922000000,-11.075763,31.523117,
1926500000,-11.224717,26.222939,
1931000000,-11.32443,20.797184,
1935500000,-11.494221,15.406132,
1940000000,-11.624491,9.6742182,
1944500000,-11.714586,3.8077049,
1949000000,-11.75658,-2.4326055,
1953500000,-11.786573,-9.2362986,
1958000000,-11.794656,-16.098719,
1962500000,-11.737951,-22.731457,
1967000000,-11.639559,-30.752623,
1971500000,-11.652035,-37.574615,
1976000000,-11.504077,-44.209332,
1980500000,-11.320147,-51.260201,
1985000000,-11.291354,-57.958199,
1989500000,-11.142255,-63.913284,
1994000000,-10.979245,-70.230736,
1998500000,-10.932369,-76.443871,
2003000000,-10.90951,-81.378716,
2007500000,-10.773059,-86.897881,
2012000000,-10.77282,-92.267921,
2016500000,-10.783545,-96.996941,
2021000000,-10.67139,-102.18743,
2025500000,-10.706004,-107.48241,
2030000000,-10.735346,-111.86556,
2034500000,-10.58463,-116.73026,
2039000000,-10.524808,-122.00348,
2043500000,-10.515977,-126.47019,
2048000000,-10.348504,-130.63918,
2052500000,-10.256343,-135.16544,
2057000000,-10.155689,-139.22052,
2061500000,-9.9872351,-142.76372,
2066000000,-9.8512287,-146.53969,
2070500000,-9.6961155,-149.64864,
2075000000,-9.4870853,-152.9541,
2079500000,-9.3152304,-156.25288,
2084000000,-9.1553717,-159.61151,
2088500000,-9.086834,-162.32706,
2093000000,-8.9484921,-165.49745,
2097500000,-8.8315172,-168.38275,
2102000000,-8.7376566,-171.48422,
2106500000,-8.600688,-174.51137,
2111000000,-8.4816885,-177.94273,
2115500000,-8.3962545,178.64008,
2120000000,-8.2648268,175.39607,
2124500000,-8.0808115,171.54736,
2129000000,-8.0225897,167.78606,
2133500000,-7.8841772,164.30696,
2138000000,-7.6733074,160.33087,
2142500000,-7.5863123,156.34117,
2147000000,-7.4461226,152.98384,
2151500000,-7.2553349,149.18149,
2156000000,-7.1786423,145.08086,
2160500000,-7.0783734,141.91725,
2165000000,-6.8643961,138.14478,
2169500000,-6.8129959,134.02432,
2174000000,-6.7913995,131.07028,
2178500000,-6.6515107,127.2244,
2183000000,-6.6738281,122.80408,
2187500000,-6.7259741,119.61695,
2192000000,-6.6921406,115.9473,
2196500000,-6.752883,111.53294,
2201000000,-6.8972054,107.8954,
2205500000,-6.8824172,104.30639,
2210000000,-6.9751329,99.415779,
2214500000,-7.1499252,95.726021,
2219000000,-7.1153159,91.622322,
2223500000,-7.1874108,86.747482,
2228000000,-7.3069267,82.810585,
2232500000,-7.3094611,78.738564,
2237000000,-7.445323,74.153854,
2241500000,-7.5502267,70.160484,
2246000000,-7.5504484,65.67659,
2250500000,-7.7201576,61.126629,
2255000000,-7.9056077,57.496021,
2259500000,-8.0192928,53.456154,
2264000000,-8.2348833,48.830215,
2268500000,-8.4922361,44.891003,
2273000000,-8.6866922,41.155666,
2277500000,-8.987443,36.192383,
2282000000,-9.3623819,32.058556,
2286500000,-9.6144543,27.679577,
2291000000,-9.9687328,22.356424,
2295500000,-10.417706,17.196091,
2300000000,-10.754113,12.145391,
2304500000,-11.126389,5.9847741,
2309000000,-11.635715,0.38386682,
2313500000,-12.064377,-5.0558362,
2318000000,-12.4051,-10.953156,
2322500000,-12.868592,-17.008957,
2327000000,-13.20075,-22.492088,
2331500000,-13.612339,-28.983112,
2336000000,-13.980501,-35.836163,
2340500000,-14.471977,-42.835869,
2345000000,-15.100213,-50.290279,
2349500000,-15.73903,-57.585934,
2354000000,-16.542299,-65.779449,
2358500000,-17.480869,-73.525078,
2363000000,-18.267683,-81.969147,
2367500000,-18.995342,-92.536293,
2372000000,-19.616806,-103.80155,
2376500000,-20.00803,-115.61657,
2381000000,-19.921726,-129.55005,
2385500000,-19.964104,-143.68115,
2390000000,-19.481173,-155.9975,
2394500000,-18.948441,-166.70821,
2399000000,-18.460985,-177.76082,
2403500000,-18.056,173.02664,
2408000000,-17.495075,165.11465,
2412500000,-17.086847,157.13588,
2417000000,-16.660053,150.12224,
2421500000,-16.37326,142.92369,
2426000000,-16.049028,135.74431,
2430500000,-15.795815,128.32515,
2435000000,-15.601737,121.05042,
2439500000,-15.288188,113.38712,
2444000000,-15.084813,107.08469,
2448500000,-14.855681,99.33313,
2453000000,-14.654917,93.26799,
2457500000,-14.362457,86.711784,
2462000000,-14.220698,80.261429,
2466500000,-14.040479,75.233574,
2471000000,-13.828213,70.778687,
2475500000,-13.631233,65.259354,
2480000000,-13.57656,60.867123,
2484500000,-13.360866,56.219997,
2489000000,-13.326575,50.746986,
2493500000,-13.435163,46.036499,
2498000000,-13.471512,41.518414,
2502500000,-13.623524,35.871555,
2507000000,-13.844457,30.160858,
2511500000,-14.105878,25.152472,
2516000000,-14.325617,19.172112,
2520500000,-14.699224,13.42188,
2525000000,-14.923738,8.3880453,
2529500000,-14.996375,1.8293849,
2534000000,-15.300047,-5.0813842,
2538500000,-15.493948,-11.441259,
2543000000,-15.653612,-17.988098,
2547500000,-16.036112,-24.498764,
2552000000,-16.397366,-29.727713,
2556500000,-16.612997,-34.648411,
2561000000,-16.918209,-39.179005,
2565500000,-17.232861,-44.282257,
2570000000,-17.6054,-49.329926,
2574500000,-18.00588,-53.998409,
2579000000,-18.392521,-59.664715,
2583500000,-18.932501,-65.647903,
2588000000,-19.482565,-72.694016,
2592500000,-19.979279,-80.710159,
2597000000,-20.697586,-89.644226,
2601500000,-21.169323,-98.744904,
2606000000,-21.331522,-109.21635,
2610500000,-21.59709,-119.82888,
2615000000,-21.590923,-128.6004,
2619500000,-21.081394,-139.37038,
2624000000,-20.810104,-148.86827,
2628500000,-20.569956,-156.32901,
2633000000,-20.202829,-163.627,
2637500000,-19.931448,-170.93317,
2642000000,-19.725288,-177.67079,
2646500000,-19.539616,175.41998,
2651000000,-19.456869,168.41261,
2655500000,-19.311592,161.37451,
2660000000,-19.382551,155.45811,
2664500000,-19.164589,149.67268,
2669000000,-18.961004,143.01778,
2673500000,-18.639666,136.19533,
2678000000,-18.116253,129.13612,
2682500000,-17.685806,121.66194,
2687000000,-17.299913,115.17361,
2691500000,-16.883617,109.31817,
2696000000,-16.580912,104.21106,
2700500000,-16.215612,99.509583,
2705000000,-15.884407,95.534241,
2709500000,-15.572346,91.715218,
2714000000,-15.265597,87.5709,
2718500000,-15.061458,84.460968,
2723000000,-14.814572,80.874718,
2727500000,-14.649877,76.88739,
2732000000,-14.550055,72.904678,
2736500000,-14.408367,69.017159,
2741000000,-14.388264,64.208397,
2745500000,-14.449416,59.449688,
2750000000,-14.40006,55.335262,
2754500000,-14.411879,50.351925,
2759000000,-14.368238,45.550446,
2763500000,-14.293702,41.032314,
2768000000,-14.202029,36.105068,
2772500000,-14.15132,31.1022,
2777000000,-14.054483,27.34034,
2781500000,-13.903294,22.88612,
2786000000,-13.838722,18.642618,
2790500000,-13.730053,15.283938,
2795000000,-13.634862,11.658111,
2799500000,-13.685883,8.0961342,
2804000000,-13.695243,5.2516866,
2808500000,-13.686488,1.7537231,
2813000000,-13.850175,-1.7978275,
2817500000,-13.976508,-5.0182714,
2822000000,-14.144875,-8.4652042,
2826500000,-14.410615,-12.140596,
2831000000,-14.651466,-15.431724,
2835500000,-14.846336,-19.791821,
2840000000,-15.033197,-23.863239,
2844500000,-15.341916,-27.754152,
2849000000,-15.532383,-32.02042,
2853500000,-15.648934,-36.113922,
2858000000,-15.722536,-40.371693,
2862500000,-15.824941,-43.865116,
2867000000,-15.805001,-47.644291,
2871500000,-15.775014,-51.293419,
2876000000,-15.766212,-54.685562,
2880500000,-15.797544,-58.269825,
2885000000,-15.854754,-61.620274,
2889500000,-15.994355,-64.371002,
2894000000,-16.1464,-67.215393,
2898500000,-16.36232,-70.169266,
2903000000,-16.604185,-72.447891,
2907500000,-16.857185,-74.916328,
2912000000,-17.154953,-78.478325,
2916500000,-17.473143,-82.027359,
2921000000,-17.799238,-84.922272,
2925500000,-18.009611,-88.83622,
2930000000,-18.233295,-93.967239,
2934500000,-18.49811,-97.582451,
2939000000,-18.625725,-103.06737,
2943500000,-18.743645,-108.03759,
2948000000,-18.763605,-112.21033,
2952500000,-18.609446,-118.07394,
2957000000,-18.605675,-123.14431,
2961500000,-18.501812,-126.95334,
2966000000,-18.38286,-131.30112,
2970500000,-18.376431,-135.92009,
2975000000,-18.400084,-139.49838,
2979500000,-18.351913,-142.92319,
2984000000,-18.511763,-146.88216,
2988500000,-18.694418,-150.48647,
2993000000,-18.829803,-154.06671,
2997500000,-19.053898,-158.92606,
3002000000,-19.280766,-162.81686,
3006500000,-19.477665,-168.73755,
3011000000,-19.80348,-174.25034,
3015500000,-20.046873,179.558,
3020000000,-20.122419,172.16553,
3024500000,-20.293348,165.88141,
3029000000,-20.216152,159.92848,
3033500000,-20.024818,153.75064,
3038000000,-19.890673,147.5248,
3042500000,-19.731052,143.07558,
3047000000,-19.348389,138.26701,
3051500000,-19.192995,134.03787,
3056000000,-19.003086,129.83607,
3060500000,-18.830811,125.24103,
3065000000,-18.758673,121.39112,
3069500000,-18.826773,117.03001,
3074000000,-18.980038,112.6234,
3078500000,-19.138577,107.47567,
3083000000,-19.345415,103.74033,
3087500000,-19.586714,98.790871,
3092000000,-19.770372,93.112724,
