!CSV A.01.01
!Agilent Technologies,E8361C,US49010233,A.09.22.11
!Agilent E8361C: A.09.22.11
!Date: Wednesday, September 28, 2022 12:43:16
!Source: Standard

BEGIN CH1_DATA
Freq(Hz),S22(DB),S22(DEG)
500000000,-1.7108127,-155.20152
504500000,-1.7568173,-156.62436
509000000,-1.7704318,-158.02209
513500000,-1.8104769,-159.31813
518000000,-1.8293785,-160.57991
522500000,-1.888582,-161.91197
527000000,-1.938239,-163.31396
531500000,-1.9956853,-164.66614
536000000,-2.0639534,-166.10548
540500000,-2.1248095,-167.59579
545000000,-2.1734817,-168.89101
549500000,-2.2213945,-170.33739
554000000,-2.265492,-171.6442
558500000,-2.3096328,-173.08235
563000000,-2.3635998,-174.30695
567500000,-2.4547582,-175.6653
572000000,-2.5301809,-176.95943
576500000,-2.6513565,-178.24937
581000000,-2.7793431,-179.50931
585500000,-2.9031162,179.32196
590000000,-3.0114331,178.06746
594500000,-3.1072493,176.97276
599000000,-3.1941249,175.85962
603500000,-3.2910213,174.77017
608000000,-3.3730187,173.86084
612500000,-3.4641368,172.72754
617000000,-3.5403781,172.04721
621500000,-3.5896287,171.08835
626000000,-3.6326902,170.36014
630500000,-3.6594131,169.47919
635000000,-3.7241557,168.2908
639500000,-3.7751932,167.15158
644000000,-3.8096342,165.93007
648500000,-3.8332615,164.83974
653000000,-3.8588219,163.38567
657500000,-3.8819532,162.02002
662000000,-3.9194565,160.53192
666500000,-3.9753342,159.33179
671000000,-4.0391316,157.85541
675500000,-4.1072712,156.37656
680000000,-4.2063088,154.87607
684500000,-4.3488202,153.17543
689000000,-4.5239291,151.76263
693500000,-4.6818776,150.32079
698000000,-4.8341846,148.72974
702500000,-4.9832258,147.32133
707000000,-5.1585774,145.87065
711500000,-5.2872701,144.55606
716000000,-5.4488406,143.43597
720500000,-5.5519896,142.47064
725000000,-5.7322307,141.20024
729500000,-5.9402881,140.1338
734000000,-6.1479564,139.0173
738500000,-6.402792,137.87582
743000000,-6.6104512,137.11252
747500000,-6.833662,136.26808
752000000,-7.0214658,135.57196
756500000,-7.1960425,134.75192
761000000,-7.3576746,133.74709
765500000,-7.5573068,133.42625
770000000,-7.7177825,132.97781
774500000,-7.8724504,132.67953
779000000,-8.1329269,133.05418
783500000,-8.2882395,133.83318
788000000,-8.3666496,133.39473
792500000,-8.5581036,132.6942
797000000,-8.7950249,132.81592
801500000,-8.7829018,132.57077
806000000,-8.8177509,131.0433
810500000,-8.9609823,130.19093
815000000,-8.9684725,129.55389
819500000,-8.9495707,127.74886
824000000,-9.1878891,126.25306
828500000,-9.4657612,126.39812
833000000,-9.5255518,126.51243
837500000,-9.7091866,125.53963
842000000,-9.9903812,124.71725
846500000,-10.177247,125.05757
851000000,-10.283442,123.86148
855500000,-10.520229,122.29383
860000000,-10.838748,121.82267
864500000,-10.877424,121.71945
869000000,-10.896153,120.27039
873500000,-11.149595,119.20364
878000000,-11.362276,119.01487
882500000,-11.556829,118.83466
887000000,-11.866812,117.96948
891500000,-12.328242,118.37927
896000000,-12.64255,119.41094
900500000,-13.026248,119.15116
905000000,-13.435319,118.74454
909500000,-14.0165,119.22878
914000000,-14.270283,120.00794
918500000,-14.539327,119.67392
923000000,-14.804013,120.65386
927500000,-15.055665,122.57317
932000000,-15.134755,123.66991
936500000,-15.418621,125.05177
941000000,-15.583475,129.29327
945500000,-15.561388,132.59465
950000000,-15.532309,134.72664
954500000,-15.75156,136.31802
959000000,-15.766992,138.72012
963500000,-15.751789,139.60637
968000000,-15.87593,139.7706
972500000,-15.903225,141.56947
977000000,-15.58936,143.12416
981500000,-15.277583,143.45164
986000000,-15.108541,144.41217
990500000,-14.86219,146.599
995000000,-14.504621,148.12675
999500000,-14.349867,149.11409
1004000000,-14.246894,150.81377
1008500000,-14.131233,152.43597
1013000000,-13.989669,152.64201
1017500000,-13.949704,152.4771
1022000000,-13.868833,152.74489
1026500000,-13.59502,152.11183
1031000000,-13.353458,150.47176
1035500000,-13.134443,149.78178
1040000000,-12.806498,148.94269
1044500000,-12.478034,147.77832
1049000000,-12.33372,147.01852
1053500000,-12.162765,147.08432
1058000000,-11.978603,147.00681
1062500000,-11.911804,145.2355
1067000000,-12.012882,144.49886
1071500000,-12.043272,143.83882
1076000000,-11.898808,142.12157
1080500000,-11.910254,139.82259
1085000000,-11.922617,139.08075
1089500000,-11.719993,137.86685
1094000000,-11.589494,136.04384
1098500000,-11.609959,135.07155
1103000000,-11.570873,135.77431
1107500000,-11.417647,135.79721
1112000000,-11.423305,135.10132
1116500000,-11.53159,135.15758
1121000000,-11.506351,135.15462
1125500000,-11.504576,133.76884
1130000000,-11.621184,132.03503
1134500000,-11.623601,131.24513
1139000000,-11.514311,129.62985
1143500000,-11.38501,127.50893
1148000000,-11.357957,126.05622
1152500000,-11.214027,125.86182
1157000000,-10.990633,124.81208
1161500000,-10.959866,123.51758
1166000000,-11.038816,123.1787
1170500000,-10.930642,122.61462
1175000000,-10.950475,120.55448
1179500000,-11.103786,118.623
1184000000,-11.187755,117.29665
1188500000,-11.085642,114.92705
1193000000,-11.080251,111.34942
1197500000,-11.158825,109.21212
1202000000,-11.108493,108.02323
1206500000,-11.036771,106.27634
1211000000,-11.201292,104.74258
1215500000,-11.38195,104.72617
1220000000,-11.488237,104.02787
1224500000,-11.683136,102.33794
1229000000,-12.100835,100.26865
1233500000,-12.446746,99.690567
1238000000,-12.555484,96.870468
1242500000,-12.784284,93.837143
1247000000,-13.042326,92.536156
1251500000,-13.04474,91.278038
1256000000,-13.016775,89.353226
1260500000,-13.186847,88.155273
1265000000,-13.457787,88.265434
1269500000,-13.631396,88.361504
1274000000,-13.931814,87.449425
1278500000,-14.325995,87.10556
1283000000,-14.655265,87.149902
1287500000,-14.839189,85.325439
1292000000,-15.22942,82.349449
1296500000,-15.497612,80.747482
1301000000,-15.585987,79.401543
1305500000,-15.641665,77.680046
1310000000,-15.822678,76.887466
1314500000,-15.923051,77.772568
1319000000,-15.975006,77.777802
1323500000,-16.34012,77.626282
1328000000,-16.912777,77.850189
1332500000,-17.485615,78.464996
1337000000,-18.136948,77.243584
1341500000,-19.013865,75.865448
1346000000,-19.690401,74.268631
1350500000,-20.018213,71.558403
1355000000,-20.474514,69.258537
1359500000,-20.892881,67.843506
1364000000,-21.12397,69.324646
1368500000,-21.453686,71.596588
1373000000,-21.779484,75.364967
1377500000,-22.33086,81.677162
1382000000,-22.815529,88.624916
1386500000,-23.328247,93.921593
1391000000,-23.925652,99.481575
1395500000,-24.307405,104.7045
1400000000,-24.723999,106.56603
1404500000,-24.923136,106.95375
1409000000,-24.548155,107.42088
1413500000,-23.976049,108.12135
1418000000,-23.176283,107.31955
1422500000,-22.54969,109.54004
1427000000,-21.716864,112.91041
1431500000,-21.115103,115.26344
1436000000,-20.88735,118.3372
1440500000,-20.809549,121.8553
1445000000,-20.776392,124.51875
1449500000,-21.036142,125.67718
1454000000,-21.442171,126.48727
1458500000,-21.576271,126.11478
1463000000,-21.605644,123.3633
1467500000,-21.514135,120.36172
1472000000,-21.201056,118.26003
1476500000,-20.664267,116.55461
1481000000,-20.202349,114.71975
1485500000,-20.048967,116.18619
1490000000,-19.80588,117.61531
1494500000,-19.76104,120.11033
1499000000,-19.821581,122.05187
1503500000,-20.097326,123.57905
1508000000,-20.337818,123.90194
1512500000,-20.642246,122.601
1517000000,-20.573154,120.68913
1521500000,-20.311016,116.85686
1526000000,-20.229307,114.79594
1530500000,-19.78195,113.78886
1535000000,-19.206524,113.66053
1539500000,-18.913393,113.29272
1544000000,-18.751892,116.2135
1548500000,-18.525482,119.40052
1553000000,-18.447571,120.52493
1557500000,-18.633535,122.0111
1562000000,-18.872763,123.32464
1566500000,-18.96784,123.32353
1571000000,-19.136997,120.46758
1575500000,-19.210808,117.95878
1580000000,-18.883053,115.17995
1584500000,-18.392521,112.16366
1589000000,-18.002949,110.01926
1593500000,-17.633389,110.43506
1598000000,-17.224842,110.53634
1602500000,-17.005911,109.9483
1607000000,-17.170868,110.47937
1611500000,-17.236633,110.87872
1616000000,-17.395676,109.70976
1620500000,-17.719728,106.2157
1625000000,-17.989319,103.65244
1629500000,-17.805407,100.87825
1634000000,-17.403023,96.247345
1638500000,-17.189299,93.43541
1643000000,-16.838802,92.595528
1647500000,-16.427637,91.86409
1652000000,-16.230087,91.573517
1656500000,-16.334179,92.022385
1661000000,-16.422831,92.748093
1665500000,-16.693054,91.580406
1670000000,-17.146736,89.521317
1674500000,-17.648758,87.20649
1679000000,-17.843384,83.893173
1683500000,-17.864603,79.512444
1688000000,-17.924891,75.922165
1692500000,-17.72625,73.791275
1697000000,-17.409815,72.65567
1701500000,-17.299179,71.694977
1706000000,-17.388905,71.488327
1710500000,-17.428247,72.871437
1715000000,-17.616364,72.420074
1719500000,-18.05921,70.52597
1724000000,-18.474426,68.932182
1728500000,-18.703262,65.601654
1733000000,-18.845566,60.754185
1737500000,-18.799927,56.087219
1742000000,-18.520454,52.88464
1746500000,-18.067011,50.425209
1751000000,-17.79224,48.97879
1755500000,-17.727472,48.898079
1760000000,-17.761526,49.593388
1764500000,-17.982706,49.107887
1769000000,-18.503061,48.119583
1773500000,-19.143002,46.868225
1778000000,-19.704536,43.462811
1782500000,-20.30209,37.76767
1787000000,-20.635326,30.913429
1791500000,-20.601074,25.827524
1796000000,-20.37027,21.741253
1800500000,-20.065382,19.160337
1805000000,-19.937483,18.905664
1809500000,-20.028553,19.349178
1814000000,-20.275824,19.297972
1818500000,-20.849905,18.760981
1823000000,-21.586609,17.493725
1827500000,-22.376013,13.451682
1832000000,-22.842794,6.7951498
1836500000,-23.084543,-1.3661183
1841000000,-22.982811,-8.6591225
1845500000,-22.4459,-11.147411
1850000000,-21.963758,-13.644535
1854500000,-21.757736,-13.089022
1859000000,-21.732233,-11.561489
1863500000,-22.116888,-9.9627228
1868000000,-22.786184,-9.2243366
1872500000,-23.632521,-9.4097548
1877000000,-24.830191,-12.598966
1881500000,-25.864376,-19.3843
1886000000,-26.465801,-30.059826
1890500000,-25.881611,-40.759312
1895000000,-25.109541,-47.234734
1899500000,-24.435616,-49.737465
1904000000,-23.750116,-50.825657
1908500000,-23.482006,-50.803856
1913000000,-23.823921,-49.343414
1917500000,-24.123007,-48.807526
1922000000,-24.905449,-51.734032
1926500000,-25.885424,-55.416943
1931000000,-26.706074,-61.858006
1935500000,-26.619555,-73.132477
1940000000,-25.994396,-81.480591
1944500000,-25.199011,-85.697777
1949000000,-24.172445,-87.909431
1953500000,-23.406691,-86.820602
1958000000,-23.167988,-86.416969
1962500000,-23.440569,-83.290535
1967000000,-23.806038,-82.54776
1971500000,-24.741037,-83.556236
1976000000,-25.730326,-86.896446
1980500000,-26.82955,-96.678894
1985000000,-27.000069,-108.65352
1989500000,-26.510344,-121.00199
1994000000,-25.50778,-128.09216
1998500000,-24.610283,-129.9792
2003000000,-23.628418,-129.29567
2007500000,-23.336714,-127.6144
2012000000,-23.346655,-125.45996
2016500000,-23.774412,-123.46302
2021000000,-24.469198,-122.35858
2025500000,-25.406147,-125.95492
2030000000,-26.250896,-131.9565
2034500000,-26.450792,-142.01483
2039000000,-26.227505,-153.18617
2043500000,-25.492636,-158.20782
2048000000,-25.000759,-159.53789
2052500000,-24.520672,-157.5452
2057000000,-24.553801,-153.81548
2061500000,-24.650387,-148.53625
2066000000,-25.314463,-142.31581
2070500000,-26.376808,-139.44427
2075000000,-27.958618,-138.10646
2079500000,-29.831375,-140.96625
2084000000,-31.650629,-154.69383
2088500000,-32.0602,-169.14488
2093000000,-31.137915,174.71411
2097500000,-29.650993,171.00198
2102000000,-29.017445,173.84277
2106500000,-28.401106,179.06778
2111000000,-27.970816,-172.72719
2115500000,-28.202187,-163.15775
2120000000,-29.058283,-152.87444
2124500000,-30.116693,-142.58678
2129000000,-31.882971,-131.18951
2133500000,-34.110531,-124.85464
2138000000,-36.801899,-116.01313
2142500000,-38.490677,-114.42034
2147000000,-39.559799,-127.62874
2151500000,-37.742397,-138.02892
2156000000,-34.591518,-139.79323
2160500000,-32.19426,-132.07884
2165000000,-30.370964,-123.97037
2169500000,-28.528675,-111.96951
2174000000,-27.289801,-102.94892
2178500000,-26.197079,-94.749245
2183000000,-25.809086,-87.336807
2187500000,-25.868132,-80.383247
2192000000,-26.085131,-77.132164
2196500000,-26.80859,-76.838791
2201000000,-27.89093,-81.056923
2205500000,-28.159996,-88.523247
2210000000,-27.457598,-98.502655
2214500000,-26.227018,-107.84709
2219000000,-24.911015,-110.6812
2223500000,-23.614132,-109.6027
2228000000,-22.70524,-108.07098
2232500000,-22.216791,-104.91534
2237000000,-21.899645,-100.78138
2241500000,-21.773933,-98.467468
2246000000,-22.093235,-97.487274
2250500000,-22.530554,-98.38179
2255000000,-22.65976,-100.47984
2259500000,-22.57416,-105.61237
2264000000,-22.055376,-110.75101
2268500000,-21.373419,-113.37141
2273000000,-20.379427,-114.70525
2277500000,-19.5252,-114.854
2282000000,-19.032133,-113.0298
2286500000,-18.616001,-109.85332
2291000000,-18.376312,-108.21532
2295500000,-18.506245,-107.10977
2300000000,-18.852962,-106.561
2304500000,-19.055584,-107.95374
2309000000,-19.231865,-111.53413
2313500000,-19.293821,-115.59538
2318000000,-19.003361,-120.10657
2322500000,-18.402292,-123.91144
2327000000,-17.800581,-126.95786
2331500000,-17.26738,-127.66281
2336000000,-16.776766,-127.49241
2340500000,-16.451948,-127.28812
2345000000,-16.313591,-126.97108
2349500000,-16.385487,-126.95119
2354000000,-16.572147,-127.61825
2358500000,-16.711113,-129.60121
2363000000,-16.853575,-132.86353
2367500000,-16.858656,-135.54466
2372000000,-16.507017,-139.33266
2376500000,-16.26631,-141.95366
2381000000,-15.960071,-143.13657
2385500000,-15.574939,-142.83937
2390000000,-15.300784,-142.51363
2394500000,-15.316821,-141.17972
2399000000,-15.362557,-139.99606
2403500000,-15.540919,-139.13976
2408000000,-15.803484,-139.90063
2412500000,-16.200815,-141.60484
2417000000,-16.47081,-144.27182
2421500000,-16.504219,-147.37122
2426000000,-16.329599,-151.51886
2430500000,-16.025988,-153.78792
2435000000,-15.605131,-154.90565
2439500000,-15.229886,-155.50719
2444000000,-15.091556,-155.06261
2448500000,-14.922848,-153.55333
2453000000,-14.895626,-152.39558
2457500000,-15.038301,-152.52344
2462000000,-15.331859,-152.75594
2466500000,-15.493712,-154.09099
2471000000,-15.518526,-156.43985
2475500000,-15.515044,-159.55919
2480000000,-15.31214,-161.86096
2484500000,-15.011545,-163.1223
2489000000,-14.730233,-164.03424
2493500000,-14.450508,-163.85977
2498000000,-14.291612,-162.68677
2502500000,-14.248747,-161.80194
2507000000,-14.377805,-161.39363
2511500000,-14.755245,-160.25003
2516000000,-14.99519,-160.5202
2520500000,-15.281777,-161.7489
2525000000,-15.564491,-164.09909
2529500000,-15.606466,-166.52095
2534000000,-15.456375,-169.36578
2538500000,-15.184697,-171.71577
2543000000,-14.932824,-172.52383
2547500000,-14.609242,-172.21252
2552000000,-14.408676,-171.82928
2556500000,-14.310687,-171.28874
2561000000,-14.338307,-170.23166
2565500000,-14.481483,-169.65067
2570000000,-14.601684,-170.23627
2574500000,-14.812631,-171.17389
2579000000,-14.96167,-172.74477
2583500000,-14.960844,-175.07552
2588000000,-14.830619,-177.20879
2592500000,-14.606577,-178.69675
2597000000,-14.333841,-179.2968
2601500000,-14.069506,-179.0289
2606000000,-13.928485,-178.36218
2610500000,-13.812763,-177.06906
2615000000,-13.919217,-175.92342
2619500000,-14.111307,-175.4494
2624000000,-14.445382,-175.35818
2628500000,-14.739645,-176.29385
2633000000,-15.020205,-178.39651
2637500000,-15.099122,179.0835
2642000000,-15.081257,176.25601
2646500000,-14.907624,174.91107
2651000000,-14.614013,173.3157
2655500000,-14.332525,172.90623
2660000000,-14.217681,173.51933
2664500000,-14.084344,174.87637
2669000000,-14.108422,175.47678
2673500000,-14.297928,175.9431
2678000000,-14.527978,176.00935
2682500000,-14.699194,175.36618
2687000000,-14.880406,173.22363
2691500000,-14.903769,171.61465
2696000000,-14.812829,169.65041
2700500000,-14.575718,168.54425
2705000000,-14.345711,168.25252
2709500000,-14.13539,168.89935
2714000000,-13.979196,170.12018
2718500000,-13.940862,171.07251
2723000000,-14.070867,172.70091
2727500000,-14.21758,173.53964
2732000000,-14.423131,173.5712
2736500000,-14.700827,172.93565
2741000000,-14.999025,171.62178
2745500000,-15.101619,169.92921
2750000000,-15.08528,167.37866
2754500000,-14.971736,165.819
2759000000,-14.82769,164.27025
2763500000,-14.559415,164.5006
2768000000,-14.410839,164.30696
2772500000,-14.30908,165.1803
2777000000,-14.317099,166.62976
2781500000,-14.398322,167.41656
2786000000,-14.486523,167.24982
2790500000,-14.679205,167.38965
2795000000,-14.779224,166.78322
2799500000,-14.823575,164.67262
2804000000,-14.770725,163.82768
2808500000,-14.525699,162.58673
2813000000,-14.308995,161.38834
2817500000,-14.040245,161.35991
2822000000,-13.896708,162.23691
2826500000,-13.739303,163.46178
2831000000,-13.802743,164.67471
2835500000,-13.923049,165.55307
2840000000,-14.163418,166.24222
2844500000,-14.327217,166.09
2849000000,-14.64697,165.60832
2853500000,-14.827041,163.7973
2858000000,-14.884336,162.18575
2862500000,-14.760505,159.96349
2867000000,-14.672971,158.70714
2871500000,-14.467859,158.1568
2876000000,-14.216725,158.40184
2880500000,-14.093262,159.11047
2885000000,-14.104475,160.00755
2889500000,-14.150545,160.61763
2894000000,-14.235356,161.0947
2898500000,-14.348399,160.77516
2903000000,-14.47589,159.91055
2907500000,-14.438587,158.96825
2912000000,-14.445482,157.32477
2916500000,-14.331653,156.40652
2921000000,-14.090771,156.67967
2925500000,-13.852904,156.19696
2930000000,-13.696481,157.01283
2934500000,-13.543163,158.23337
2939000000,-13.464155,159.37
2943500000,-13.502551,160.45592
2948000000,-13.654922,161.30164
2952500000,-13.794552,161.77676
2957000000,-13.902963,161.45323
2961500000,-13.997048,160.69484
2966000000,-14.021716,159.49315
2970500000,-13.938594,157.83362
2975000000,-13.771152,156.26572
2979500000,-13.622081,155.40669
2984000000,-13.426849,155.2469
2988500000,-13.177753,155.53296
2993000000,-13.057654,155.13956
2997500000,-13.076357,155.89511
3002000000,-13.020087,155.67732
3006500000,-13.049004,155.23711
3011000000,-13.096843,154.77687
3015500000,-13.10832,153.45554
3020000000,-13.015682,151.76012
3024500000,-12.908969,150.35033
3029000000,-12.713052,149.48257
3033500000,-12.50085,148.55777
3038000000,-12.342353,148.44142
3042500000,-12.227135,148.64423
3047000000,-12.128201,149.30855
3051500000,-12.079832,149.48442
3056000000,-12.144708,149.82916
3060500000,-12.31015,150.02161
3065000000,-12.40078,149.43051
3069500000,-12.541905,148.02655
3074000000,-12.618806,146.55688
3078500000,-12.519764,145.37776
3083000000,-12.454039,143.82755
3087500000,-12.374043,142.536
3092000000,-12.313497,142.10242
3096500000,-12.177138,141.55092
3101000000,-12.088943,141.28546
3105500000,-12.178873,140.86885
3110000000,-12.240422,140.79633
3114500000,-12.240891,140.00395
3119000000,-12.320786,138.58276
3123500000,-12.384765,137.82484
3128000000,-12.322262,136.59674
3132500000,-12.245153,135.03667
3137000000,-12.18564,134.73753
3141500000,-12.124673,134.24533
3146000000,-11.91358,134.35265
3150500000,-11.831113,134.30206
3155000000,-11.895879,134.55005
3159500000,-11.86815,135.32492
3164000000,-11.95705,135.13033
3168500000,-12.065438,135.03937
3173000000,-12.194467,134.9814
3177500000,-12.212195,134.34869
3182000000,-12.313589,132.79091
3186500000,-12.355613,131.95013
3191000000,-12.290712,131.09544
3195500000,-12.229895,130.19472
3200000000,-12.210052,129.20982
